Frequency (GHz)	DB(|S(1,1)|) : demo 1	DB(|S(2,1)|) : demo 1
6.62	-21.7289	-0.03039
6.62	-21.7276	-0.0303994
6.62	-21.7262	-0.0304088
6.62	-21.7249	-0.0304182
6.62	-21.7236	-0.0304276
6.62	-21.7222	-0.030437
6.62	-21.7209	-0.0304464
6.62	-21.7196	-0.0304559
6.62	-21.7182	-0.0304653
6.62	-21.7169	-0.0304747
6.62	-21.7156	-0.0304842
6.62	-21.7142	-0.0304936
6.62	-21.7129	-0.0305031
6.62	-21.7115	-0.0305125
6.62	-21.7102	-0.030522
6.62	-21.7089	-0.0305314
6.62	-21.7075	-0.0305409
6.62001	-21.7062	-0.0305504
6.62001	-21.7049	-0.0305598
6.62001	-21.7035	-0.0305693
6.62001	-21.7022	-0.0305788
6.62001	-21.7009	-0.0305883
6.62001	-21.6995	-0.0305978
6.62001	-21.6982	-0.0306073
6.62001	-21.6968	-0.0306168
6.62001	-21.6955	-0.0306263
6.62001	-21.6942	-0.0306358
6.62001	-21.6928	-0.0306453
6.62001	-21.6915	-0.0306548
6.62001	-21.6901	-0.0306644
6.62001	-21.6888	-0.0306739
6.62001	-21.6875	-0.0306834
6.62001	-21.6861	-0.030693
6.62001	-21.6848	-0.0307025
6.62001	-21.6834	-0.0307121
6.62001	-21.6821	-0.0307216
6.62001	-21.6808	-0.0307312
6.62001	-21.6794	-0.0307407
6.62001	-21.6781	-0.0307503
6.62001	-21.6767	-0.0307599
6.62001	-21.6754	-0.0307694
6.62001	-21.6741	-0.030779
6.62001	-21.6727	-0.0307886
6.62001	-21.6714	-0.0307982
6.62001	-21.67	-0.0308078
6.62001	-21.6687	-0.0308174
6.62001	-21.6673	-0.030827
6.62001	-21.666	-0.0308366
6.62001	-21.6646	-0.0308462
6.62001	-21.6633	-0.0308559
6.62002	-21.662	-0.0308655
6.62002	-21.6606	-0.0308751
6.62002	-21.6593	-0.0308847
6.62002	-21.6579	-0.0308944
6.62002	-21.6566	-0.030904
6.62002	-21.6552	-0.0309137
6.62002	-21.6539	-0.0309233
6.62002	-21.6525	-0.030933
6.62002	-21.6512	-0.0309426
6.62002	-21.6498	-0.0309523
6.62002	-21.6485	-0.030962
6.62002	-21.6472	-0.0309717
6.62002	-21.6458	-0.0309813
6.62002	-21.6445	-0.030991
6.62002	-21.6431	-0.0310007
6.62002	-21.6418	-0.0310104
6.62002	-21.6404	-0.0310201
6.62002	-21.6391	-0.0310298
6.62002	-21.6377	-0.0310395
6.62002	-21.6364	-0.0310493
6.62002	-21.635	-0.031059
6.62002	-21.6337	-0.0310687
6.62002	-21.6323	-0.0310784
6.62002	-21.631	-0.0310882
6.62002	-21.6296	-0.0310979
6.62002	-21.6283	-0.0311077
6.62002	-21.6269	-0.0311174
6.62002	-21.6256	-0.0311272
6.62002	-21.6242	-0.0311369
6.62002	-21.6229	-0.0311467
6.62002	-21.6215	-0.0311564
6.62002	-21.6202	-0.0311662
6.62002	-21.6188	-0.031176
6.62002	-21.6174	-0.0311858
6.62003	-21.6161	-0.0311956
6.62003	-21.6147	-0.0312054
6.62003	-21.6134	-0.0312152
6.62003	-21.612	-0.031225
6.62003	-21.6107	-0.0312348
6.62003	-21.6093	-0.0312446
6.62003	-21.608	-0.0312544
6.62003	-21.6066	-0.0312642
6.62003	-21.6053	-0.0312741
6.62003	-21.6039	-0.0312839
6.62003	-21.6026	-0.0312937
6.62003	-21.6012	-0.0313036
6.62003	-21.5998	-0.0313134
6.62003	-21.5985	-0.0313233
6.62003	-21.5971	-0.0313331
6.62003	-21.5958	-0.031343
6.62003	-21.5944	-0.0313528
6.62003	-21.5931	-0.0313627
6.62003	-21.5917	-0.0313726
6.62003	-21.5903	-0.0313825
6.62003	-21.589	-0.0313924
6.62003	-21.5876	-0.0314023
6.62003	-21.5863	-0.0314122
6.62003	-21.5849	-0.0314221
6.62003	-21.5836	-0.031432
6.62003	-21.5822	-0.0314419
6.62003	-21.5808	-0.0314518
6.62003	-21.5795	-0.0314617
6.62003	-21.5781	-0.0314716
6.62003	-21.5768	-0.0314816
6.62003	-21.5754	-0.0314915
6.62003	-21.574	-0.0315014
6.62003	-21.5727	-0.0315114
6.62004	-21.5713	-0.0315213
6.62004	-21.5699	-0.0315313
6.62004	-21.5686	-0.0315413
6.62004	-21.5672	-0.0315512
6.62004	-21.5659	-0.0315612
6.62004	-21.5645	-0.0315712
6.62004	-21.5631	-0.0315811
6.62004	-21.5618	-0.0315911
6.62004	-21.5604	-0.0316011
6.62004	-21.559	-0.0316111
6.62004	-21.5577	-0.0316211
6.62004	-21.5563	-0.0316311
6.62004	-21.555	-0.0316411
6.62004	-21.5536	-0.0316511
6.62004	-21.5522	-0.0316612
6.62004	-21.5509	-0.0316712
6.62004	-21.5495	-0.0316812
6.62004	-21.5481	-0.0316913
6.62004	-21.5468	-0.0317013
6.62004	-21.5454	-0.0317113
6.62004	-21.544	-0.0317214
6.62004	-21.5427	-0.0317315
6.62004	-21.5413	-0.0317415
6.62004	-21.5399	-0.0317516
6.62004	-21.5386	-0.0317617
6.62004	-21.5372	-0.0317717
6.62004	-21.5358	-0.0317818
6.62004	-21.5345	-0.0317919
6.62004	-21.5331	-0.031802
6.62004	-21.5317	-0.0318121
6.62004	-21.5304	-0.0318222
6.62004	-21.529	-0.0318323
6.62004	-21.5276	-0.0318424
6.62005	-21.5262	-0.0318525
6.62005	-21.5249	-0.0318626
6.62005	-21.5235	-0.0318728
6.62005	-21.5221	-0.0318829
6.62005	-21.5208	-0.031893
6.62005	-21.5194	-0.0319032
6.62005	-21.518	-0.0319133
6.62005	-21.5167	-0.0319235
6.62005	-21.5153	-0.0319336
6.62005	-21.5139	-0.0319438
6.62005	-21.5125	-0.031954
6.62005	-21.5112	-0.0319641
6.62005	-21.5098	-0.0319743
6.62005	-21.5084	-0.0319845
6.62005	-21.507	-0.0319947
6.62005	-21.5057	-0.0320049
6.62005	-21.5043	-0.0320151
6.62005	-21.5029	-0.0320253
6.62005	-21.5016	-0.0320355
6.62005	-21.5002	-0.0320457
6.62005	-21.4988	-0.0320559
6.62005	-21.4974	-0.0320662
6.62005	-21.4961	-0.0320764
6.62005	-21.4947	-0.0320866
6.62005	-21.4933	-0.0320969
6.62005	-21.4919	-0.0321071
6.62005	-21.4906	-0.0321174
6.62005	-21.4892	-0.0321276
6.62005	-21.4878	-0.0321379
6.62005	-21.4864	-0.0321481
6.62005	-21.485	-0.0321584
6.62005	-21.4837	-0.0321687
6.62005	-21.4823	-0.032179
6.62005	-21.4809	-0.0321893
6.62006	-21.4795	-0.0321995
6.62006	-21.4782	-0.0322098
6.62006	-21.4768	-0.0322201
6.62006	-21.4754	-0.0322305
6.62006	-21.474	-0.0322408
6.62006	-21.4726	-0.0322511
6.62006	-21.4713	-0.0322614
6.62006	-21.4699	-0.0322717
6.62006	-21.4685	-0.0322821
6.62006	-21.4671	-0.0322924
6.62006	-21.4657	-0.0323028
6.62006	-21.4644	-0.0323131
6.62006	-21.463	-0.0323235
6.62006	-21.4616	-0.0323338
6.62006	-21.4602	-0.0323442
6.62006	-21.4588	-0.0323545
6.62006	-21.4574	-0.0323649
6.62006	-21.4561	-0.0323753
6.62006	-21.4547	-0.0323857
6.62006	-21.4533	-0.0323961
6.62006	-21.4519	-0.0324065
6.62006	-21.4505	-0.0324169
6.62006	-21.4491	-0.0324273
6.62006	-21.4478	-0.0324377
6.62006	-21.4464	-0.0324481
6.62006	-21.445	-0.0324585
6.62006	-21.4436	-0.032469
6.62006	-21.4422	-0.0324794
6.62006	-21.4408	-0.0324898
6.62006	-21.4395	-0.0325003
6.62006	-21.4381	-0.0325107
6.62006	-21.4367	-0.0325212
6.62006	-21.4353	-0.0325317
6.62007	-21.4339	-0.0325421
6.62007	-21.4325	-0.0325526
6.62007	-21.4311	-0.0325631
6.62007	-21.4297	-0.0325735
6.62007	-21.4284	-0.032584
6.62007	-21.427	-0.0325945
6.62007	-21.4256	-0.032605
6.62007	-21.4242	-0.0326155
6.62007	-21.4228	-0.032626
6.62007	-21.4214	-0.0326365
6.62007	-21.42	-0.0326471
6.62007	-21.4186	-0.0326576
6.62007	-21.4172	-0.0326681
6.62007	-21.4159	-0.0326787
6.62007	-21.4145	-0.0326892
6.62007	-21.4131	-0.0326997
6.62007	-21.4117	-0.0327103
6.62007	-21.4103	-0.0327209
6.62007	-21.4089	-0.0327314
6.62007	-21.4075	-0.032742
6.62007	-21.4061	-0.0327526
6.62007	-21.4047	-0.0327631
6.62007	-21.4033	-0.0327737
6.62007	-21.4019	-0.0327843
6.62007	-21.4005	-0.0327949
6.62007	-21.3992	-0.0328055
6.62007	-21.3978	-0.0328161
6.62007	-21.3964	-0.0328267
6.62007	-21.395	-0.0328373
6.62007	-21.3936	-0.032848
6.62007	-21.3922	-0.0328586
6.62007	-21.3908	-0.0328692
6.62007	-21.3894	-0.0328799
6.62007	-21.388	-0.0328905
6.62008	-21.3866	-0.0329011
6.62008	-21.3852	-0.0329118
6.62008	-21.3838	-0.0329225
6.62008	-21.3824	-0.0329331
6.62008	-21.381	-0.0329438
6.62008	-21.3796	-0.0329545
6.62008	-21.3782	-0.0329652
6.62008	-21.3768	-0.0329758
6.62008	-21.3754	-0.0329865
6.62008	-21.374	-0.0329972
6.62008	-21.3726	-0.0330079
6.62008	-21.3712	-0.0330186
6.62008	-21.3698	-0.0330294
6.62008	-21.3684	-0.0330401
6.62008	-21.367	-0.0330508
6.62008	-21.3656	-0.0330615
6.62008	-21.3642	-0.0330723
6.62008	-21.3628	-0.033083
6.62008	-21.3614	-0.0330938
6.62008	-21.36	-0.0331045
6.62008	-21.3586	-0.0331153
6.62008	-21.3572	-0.033126
6.62008	-21.3558	-0.0331368
6.62008	-21.3544	-0.0331476
6.62008	-21.353	-0.0331584
6.62008	-21.3516	-0.0331691
6.62008	-21.3502	-0.0331799
6.62008	-21.3488	-0.0331907
6.62008	-21.3474	-0.0332015
6.62008	-21.346	-0.0332124
6.62008	-21.3446	-0.0332232
6.62008	-21.3432	-0.033234
6.62008	-21.3418	-0.0332448
6.62009	-21.3404	-0.0332556
6.62009	-21.339	-0.0332665
6.62009	-21.3376	-0.0332773
6.62009	-21.3362	-0.0332882
6.62009	-21.3348	-0.033299
6.62009	-21.3334	-0.0333099
6.62009	-21.332	-0.0333207
6.62009	-21.3306	-0.0333316
6.62009	-21.3292	-0.0333425
6.62009	-21.3278	-0.0333534
6.62009	-21.3263	-0.0333643
6.62009	-21.3249	-0.0333751
6.62009	-21.3235	-0.033386
6.62009	-21.3221	-0.033397
6.62009	-21.3207	-0.0334079
6.62009	-21.3193	-0.0334188
6.62009	-21.3179	-0.0334297
6.62009	-21.3165	-0.0334406
6.62009	-21.3151	-0.0334516
6.62009	-21.3137	-0.0334625
6.62009	-21.3123	-0.0334734
6.62009	-21.3109	-0.0334844
6.62009	-21.3094	-0.0334953
6.62009	-21.308	-0.0335063
6.62009	-21.3066	-0.0335173
6.62009	-21.3052	-0.0335282
6.62009	-21.3038	-0.0335392
6.62009	-21.3024	-0.0335502
6.62009	-21.301	-0.0335612
6.62009	-21.2996	-0.0335722
6.62009	-21.2982	-0.0335832
6.62009	-21.2967	-0.0335942
6.62009	-21.2953	-0.0336052
6.6201	-21.2939	-0.0336162
6.6201	-21.2925	-0.0336272
6.6201	-21.2911	-0.0336383
6.6201	-21.2897	-0.0336493
6.6201	-21.2883	-0.0336603
6.6201	-21.2868	-0.0336714
6.6201	-21.2854	-0.0336824
6.6201	-21.284	-0.0336935
6.6201	-21.2826	-0.0337046
6.6201	-21.2812	-0.0337156
6.6201	-21.2798	-0.0337267
6.6201	-21.2784	-0.0337378
6.6201	-21.2769	-0.0337489
6.6201	-21.2755	-0.03376
6.6201	-21.2741	-0.0337711
6.6201	-21.2727	-0.0337822
6.6201	-21.2713	-0.0337933
6.6201	-21.2699	-0.0338044
6.6201	-21.2684	-0.0338155
6.6201	-21.267	-0.0338266
6.6201	-21.2656	-0.0338378
6.6201	-21.2642	-0.0338489
6.6201	-21.2628	-0.03386
6.6201	-21.2613	-0.0338712
6.6201	-21.2599	-0.0338823
6.6201	-21.2585	-0.0338935
6.6201	-21.2571	-0.0339047
6.6201	-21.2557	-0.0339158
6.6201	-21.2542	-0.033927
6.6201	-21.2528	-0.0339382
6.6201	-21.2514	-0.0339494
6.6201	-21.25	-0.0339606
6.6201	-21.2486	-0.0339718
6.6201	-21.2471	-0.033983
6.62011	-21.2457	-0.0339942
6.62011	-21.2443	-0.0340054
6.62011	-21.2429	-0.0340167
6.62011	-21.2414	-0.0340279
6.62011	-21.24	-0.0340391
6.62011	-21.2386	-0.0340504
6.62011	-21.2372	-0.0340616
6.62011	-21.2357	-0.0340729
6.62011	-21.2343	-0.0340841
6.62011	-21.2329	-0.0340954
6.62011	-21.2315	-0.0341067
6.62011	-21.23	-0.034118
6.62011	-21.2286	-0.0341292
6.62011	-21.2272	-0.0341405
6.62011	-21.2258	-0.0341518
6.62011	-21.2243	-0.0341631
6.62011	-21.2229	-0.0341744
6.62011	-21.2215	-0.0341858
6.62011	-21.2201	-0.0341971
6.62011	-21.2186	-0.0342084
6.62011	-21.2172	-0.0342197
6.62011	-21.2158	-0.0342311
6.62011	-21.2144	-0.0342424
6.62011	-21.2129	-0.0342538
6.62011	-21.2115	-0.0342651
6.62011	-21.2101	-0.0342765
6.62011	-21.2086	-0.0342878
6.62011	-21.2072	-0.0342992
6.62011	-21.2058	-0.0343106
6.62011	-21.2043	-0.034322
6.62011	-21.2029	-0.0343334
6.62011	-21.2015	-0.0343448
6.62011	-21.2001	-0.0343562
6.62012	-21.1986	-0.0343676
6.62012	-21.1972	-0.034379
6.62012	-21.1958	-0.0343904
6.62012	-21.1943	-0.0344018
6.62012	-21.1929	-0.0344133
6.62012	-21.1915	-0.0344247
6.62012	-21.19	-0.0344362
6.62012	-21.1886	-0.0344476
6.62012	-21.1872	-0.0344591
6.62012	-21.1857	-0.0344705
6.62012	-21.1843	-0.034482
6.62012	-21.1829	-0.0344935
6.62012	-21.1814	-0.0345049
6.62012	-21.18	-0.0345164
6.62012	-21.1786	-0.0345279
6.62012	-21.1771	-0.0345394
6.62012	-21.1757	-0.0345509
6.62012	-21.1743	-0.0345624
6.62012	-21.1728	-0.034574
6.62012	-21.1714	-0.0345855
6.62012	-21.1699	-0.034597
6.62012	-21.1685	-0.0346085
6.62012	-21.1671	-0.0346201
6.62012	-21.1656	-0.0346316
6.62012	-21.1642	-0.0346432
6.62012	-21.1628	-0.0346548
6.62012	-21.1613	-0.0346663
6.62012	-21.1599	-0.0346779
6.62012	-21.1584	-0.0346895
6.62012	-21.157	-0.0347011
6.62012	-21.1556	-0.0347126
6.62012	-21.1541	-0.0347242
6.62012	-21.1527	-0.0347358
6.62013	-21.1512	-0.0347474
6.62013	-21.1498	-0.0347591
6.62013	-21.1484	-0.0347707
6.62013	-21.1469	-0.0347823
6.62013	-21.1455	-0.0347939
6.62013	-21.144	-0.0348056
6.62013	-21.1426	-0.0348172
6.62013	-21.1411	-0.0348289
6.62013	-21.1397	-0.0348405
6.62013	-21.1383	-0.0348522
6.62013	-21.1368	-0.0348639
6.62013	-21.1354	-0.0348755
6.62013	-21.1339	-0.0348872
6.62013	-21.1325	-0.0348989
6.62013	-21.131	-0.0349106
6.62013	-21.1296	-0.0349223
6.62013	-21.1282	-0.034934
6.62013	-21.1267	-0.0349457
6.62013	-21.1253	-0.0349575
6.62013	-21.1238	-0.0349692
6.62013	-21.1224	-0.0349809
6.62013	-21.1209	-0.0349927
6.62013	-21.1195	-0.0350044
6.62013	-21.118	-0.0350161
6.62013	-21.1166	-0.0350279
6.62013	-21.1151	-0.0350397
6.62013	-21.1137	-0.0350514
6.62013	-21.1122	-0.0350632
6.62013	-21.1108	-0.035075
6.62013	-21.1093	-0.0350868
6.62013	-21.1079	-0.0350986
6.62013	-21.1065	-0.0351104
6.62013	-21.105	-0.0351222
6.62014	-21.1036	-0.035134
6.62014	-21.1021	-0.0351458
6.62014	-21.1007	-0.0351576
6.62014	-21.0992	-0.0351695
6.62014	-21.0978	-0.0351813
6.62014	-21.0963	-0.0351932
6.62014	-21.0948	-0.035205
6.62014	-21.0934	-0.0352169
6.62014	-21.0919	-0.0352287
6.62014	-21.0905	-0.0352406
6.62014	-21.089	-0.0352525
6.62014	-21.0876	-0.0352644
6.62014	-21.0861	-0.0352762
6.62014	-21.0847	-0.0352881
6.62014	-21.0832	-0.0353
6.62014	-21.0818	-0.035312
6.62014	-21.0803	-0.0353239
6.62014	-21.0789	-0.0353358
6.62014	-21.0774	-0.0353477
6.62014	-21.076	-0.0353596
6.62014	-21.0745	-0.0353716
6.62014	-21.073	-0.0353835
6.62014	-21.0716	-0.0353955
6.62014	-21.0701	-0.0354074
6.62014	-21.0687	-0.0354194
6.62014	-21.0672	-0.0354314
6.62014	-21.0658	-0.0354434
6.62014	-21.0643	-0.0354553
6.62014	-21.0628	-0.0354673
6.62014	-21.0614	-0.0354793
6.62014	-21.0599	-0.0354913
6.62014	-21.0585	-0.0355033
6.62014	-21.057	-0.0355154
6.62014	-21.0556	-0.0355274
6.62015	-21.0541	-0.0355394
6.62015	-21.0526	-0.0355514
6.62015	-21.0512	-0.0355635
6.62015	-21.0497	-0.0355755
6.62015	-21.0483	-0.0355876
6.62015	-21.0468	-0.0355996
6.62015	-21.0453	-0.0356117
6.62015	-21.0439	-0.0356238
6.62015	-21.0424	-0.0356359
6.62015	-21.041	-0.035648
6.62015	-21.0395	-0.0356601
6.62015	-21.038	-0.0356722
6.62015	-21.0366	-0.0356843
6.62015	-21.0351	-0.0356964
6.62015	-21.0336	-0.0357085
6.62015	-21.0322	-0.0357206
6.62015	-21.0307	-0.0357328
6.62015	-21.0292	-0.0357449
6.62015	-21.0278	-0.035757
6.62015	-21.0263	-0.0357692
6.62015	-21.0249	-0.0357813
6.62015	-21.0234	-0.0357935
6.62015	-21.0219	-0.0358057
6.62015	-21.0205	-0.0358179
6.62015	-21.019	-0.03583
6.62015	-21.0175	-0.0358422
6.62015	-21.0161	-0.0358544
6.62015	-21.0146	-0.0358666
6.62015	-21.0131	-0.0358788
6.62015	-21.0117	-0.0358911
6.62015	-21.0102	-0.0359033
6.62015	-21.0087	-0.0359155
6.62015	-21.0073	-0.0359278
6.62016	-21.0058	-0.03594
6.62016	-21.0043	-0.0359523
6.62016	-21.0028	-0.0359645
6.62016	-21.0014	-0.0359768
6.62016	-20.9999	-0.035989
6.62016	-20.9984	-0.0360013
6.62016	-20.997	-0.0360136
6.62016	-20.9955	-0.0360259
6.62016	-20.994	-0.0360382
6.62016	-20.9926	-0.0360505
6.62016	-20.9911	-0.0360628
6.62016	-20.9896	-0.0360751
6.62016	-20.9881	-0.0360874
6.62016	-20.9867	-0.0360998
6.62016	-20.9852	-0.0361121
6.62016	-20.9837	-0.0361245
6.62016	-20.9822	-0.0361368
6.62016	-20.9808	-0.0361492
6.62016	-20.9793	-0.0361615
6.62016	-20.9778	-0.0361739
6.62016	-20.9763	-0.0361863
6.62016	-20.9749	-0.0361986
6.62016	-20.9734	-0.036211
6.62016	-20.9719	-0.0362234
6.62016	-20.9704	-0.0362358
6.62016	-20.969	-0.0362482
6.62016	-20.9675	-0.0362607
6.62016	-20.966	-0.0362731
6.62016	-20.9645	-0.0362855
6.62016	-20.9631	-0.036298
6.62016	-20.9616	-0.0363104
6.62016	-20.9601	-0.0363228
6.62016	-20.9586	-0.0363353
6.62017	-20.9572	-0.0363478
6.62017	-20.9557	-0.0363602
6.62017	-20.9542	-0.0363727
6.62017	-20.9527	-0.0363852
6.62017	-20.9512	-0.0363977
6.62017	-20.9498	-0.0364102
6.62017	-20.9483	-0.0364227
6.62017	-20.9468	-0.0364352
6.62017	-20.9453	-0.0364477
6.62017	-20.9438	-0.0364602
6.62017	-20.9424	-0.0364728
6.62017	-20.9409	-0.0364853
6.62017	-20.9394	-0.0364979
6.62017	-20.9379	-0.0365104
6.62017	-20.9364	-0.036523
6.62017	-20.9349	-0.0365355
6.62017	-20.9335	-0.0365481
6.62017	-20.932	-0.0365607
6.62017	-20.9305	-0.0365733
6.62017	-20.929	-0.0365859
6.62017	-20.9275	-0.0365985
6.62017	-20.926	-0.0366111
6.62017	-20.9246	-0.0366237
6.62017	-20.9231	-0.0366363
6.62017	-20.9216	-0.0366489
6.62017	-20.9201	-0.0366616
6.62017	-20.9186	-0.0366742
6.62017	-20.9171	-0.0366868
6.62017	-20.9156	-0.0366995
6.62017	-20.9142	-0.0367122
6.62017	-20.9127	-0.0367248
6.62017	-20.9112	-0.0367375
6.62017	-20.9097	-0.0367502
6.62017	-20.9082	-0.0367629
6.62018	-20.9067	-0.0367756
6.62018	-20.9052	-0.0367883
6.62018	-20.9037	-0.036801
6.62018	-20.9023	-0.0368137
6.62018	-20.9008	-0.0368264
6.62018	-20.8993	-0.0368392
6.62018	-20.8978	-0.0368519
6.62018	-20.8963	-0.0368646
6.62018	-20.8948	-0.0368774
6.62018	-20.8933	-0.0368901
6.62018	-20.8918	-0.0369029
6.62018	-20.8903	-0.0369157
6.62018	-20.8888	-0.0369285
6.62018	-20.8873	-0.0369412
6.62018	-20.8859	-0.036954
6.62018	-20.8844	-0.0369668
6.62018	-20.8829	-0.0369796
6.62018	-20.8814	-0.0369925
6.62018	-20.8799	-0.0370053
6.62018	-20.8784	-0.0370181
6.62018	-20.8769	-0.0370309
6.62018	-20.8754	-0.0370438
6.62018	-20.8739	-0.0370566
6.62018	-20.8724	-0.0370695
6.62018	-20.8709	-0.0370824
6.62018	-20.8694	-0.0370952
6.62018	-20.8679	-0.0371081
6.62018	-20.8664	-0.037121
6.62018	-20.8649	-0.0371339
6.62018	-20.8634	-0.0371468
6.62018	-20.8619	-0.0371597
6.62018	-20.8604	-0.0371726
6.62018	-20.8589	-0.0371855
6.62019	-20.8574	-0.0371984
6.62019	-20.8559	-0.0372114
6.62019	-20.8544	-0.0372243
6.62019	-20.8529	-0.0372373
6.62019	-20.8514	-0.0372502
6.62019	-20.8499	-0.0372632
6.62019	-20.8484	-0.0372761
6.62019	-20.8469	-0.0372891
6.62019	-20.8454	-0.0373021
6.62019	-20.8439	-0.0373151
6.62019	-20.8424	-0.0373281
6.62019	-20.8409	-0.0373411
6.62019	-20.8394	-0.0373541
6.62019	-20.8379	-0.0373671
6.62019	-20.8364	-0.0373802
6.62019	-20.8349	-0.0373932
6.62019	-20.8334	-0.0374062
6.62019	-20.8319	-0.0374193
6.62019	-20.8304	-0.0374323
6.62019	-20.8289	-0.0374454
6.62019	-20.8274	-0.0374585
6.62019	-20.8259	-0.0374715
6.62019	-20.8244	-0.0374846
6.62019	-20.8229	-0.0374977
6.62019	-20.8214	-0.0375108
6.62019	-20.8199	-0.0375239
6.62019	-20.8184	-0.037537
6.62019	-20.8169	-0.0375502
6.62019	-20.8154	-0.0375633
6.62019	-20.8139	-0.0375764
6.62019	-20.8124	-0.0375896
6.62019	-20.8109	-0.0376027
6.62019	-20.8093	-0.0376159
6.62019	-20.8078	-0.037629
6.6202	-20.8063	-0.0376422
6.6202	-20.8048	-0.0376554
6.6202	-20.8033	-0.0376686
6.6202	-20.8018	-0.0376817
6.6202	-20.8003	-0.0376949
6.6202	-20.7988	-0.0377082
6.6202	-20.7973	-0.0377214
6.6202	-20.7958	-0.0377346
6.6202	-20.7943	-0.0377478
6.6202	-20.7927	-0.0377611
6.6202	-20.7912	-0.0377743
6.6202	-20.7897	-0.0377875
6.6202	-20.7882	-0.0378008
6.6202	-20.7867	-0.0378141
6.6202	-20.7852	-0.0378273
6.6202	-20.7837	-0.0378406
6.6202	-20.7822	-0.0378539
6.6202	-20.7806	-0.0378672
6.6202	-20.7791	-0.0378805
6.6202	-20.7776	-0.0378938
6.6202	-20.7761	-0.0379071
6.6202	-20.7746	-0.0379205
6.6202	-20.7731	-0.0379338
6.6202	-20.7716	-0.0379471
6.6202	-20.77	-0.0379605
6.6202	-20.7685	-0.0379738
6.6202	-20.767	-0.0379872
6.6202	-20.7655	-0.0380006
6.6202	-20.764	-0.0380139
6.6202	-20.7625	-0.0380273
6.6202	-20.7609	-0.0380407
6.6202	-20.7594	-0.0380541
6.6202	-20.7579	-0.0380675
6.62021	-20.7564	-0.0380809
6.62021	-20.7549	-0.0380943
6.62021	-20.7534	-0.0381078
6.62021	-20.7518	-0.0381212
6.62021	-20.7503	-0.0381347
6.62021	-20.7488	-0.0381481
6.62021	-20.7473	-0.0381616
6.62021	-20.7458	-0.038175
6.62021	-20.7442	-0.0381885
6.62021	-20.7427	-0.038202
6.62021	-20.7412	-0.0382155
6.62021	-20.7397	-0.038229
6.62021	-20.7381	-0.0382425
6.62021	-20.7366	-0.038256
6.62021	-20.7351	-0.0382695
6.62021	-20.7336	-0.038283
6.62021	-20.7321	-0.0382966
6.62021	-20.7305	-0.0383101
6.62021	-20.729	-0.0383236
6.62021	-20.7275	-0.0383372
6.62021	-20.726	-0.0383508
6.62021	-20.7244	-0.0383643
6.62021	-20.7229	-0.0383779
6.62021	-20.7214	-0.0383915
6.62021	-20.7199	-0.0384051
6.62021	-20.7183	-0.0384187
6.62021	-20.7168	-0.0384323
6.62021	-20.7153	-0.0384459
6.62021	-20.7138	-0.0384595
6.62021	-20.7122	-0.0384732
6.62021	-20.7107	-0.0384868
6.62021	-20.7092	-0.0385005
6.62021	-20.7076	-0.0385141
6.62022	-20.7061	-0.0385278
6.62022	-20.7046	-0.0385414
6.62022	-20.7031	-0.0385551
6.62022	-20.7015	-0.0385688
