Frequency (GHz)	DB(|S(1,1)|) : demo 1	DB(|S(2,1)|) : demo 1
4.614	-26.5084	-0.0100225
4.614	-26.5053	-0.0100296
4.614	-26.5023	-0.0100367
4.614	-26.4992	-0.0100438
4.614	-26.4962	-0.0100509
4.614	-26.4931	-0.010058
4.61401	-26.4901	-0.0100652
4.61401	-26.487	-0.0100723
4.61401	-26.4839	-0.0100795
4.61401	-26.4809	-0.0100866
4.61401	-26.4778	-0.0100938
4.61401	-26.4747	-0.010101
4.61401	-26.4717	-0.0101082
4.61401	-26.4686	-0.0101153
4.61401	-26.4655	-0.0101225
4.61402	-26.4625	-0.0101298
4.61402	-26.4594	-0.010137
4.61402	-26.4563	-0.0101442
4.61402	-26.4532	-0.0101514
4.61402	-26.4502	-0.0101587
4.61402	-26.4471	-0.0101659
4.61402	-26.444	-0.0101732
4.61402	-26.4409	-0.0101805
4.61402	-26.4378	-0.0101877
4.61402	-26.4347	-0.010195
4.61402	-26.4317	-0.0102023
4.61403	-26.4286	-0.0102096
4.61403	-26.4255	-0.0102169
4.61403	-26.4224	-0.0102243
4.61403	-26.4193	-0.0102316
4.61403	-26.4162	-0.0102389
4.61403	-26.4131	-0.0102463
4.61403	-26.41	-0.0102536
4.61403	-26.4069	-0.010261
4.61403	-26.4038	-0.0102684
4.61403	-26.4007	-0.0102758
4.61404	-26.3976	-0.0102831
4.61404	-26.3945	-0.0102905
4.61404	-26.3914	-0.0102979
4.61404	-26.3883	-0.0103054
4.61404	-26.3852	-0.0103128
4.61404	-26.3821	-0.0103202
4.61404	-26.379	-0.0103277
4.61404	-26.3759	-0.0103351
4.61404	-26.3727	-0.0103426
4.61404	-26.3696	-0.01035
4.61405	-26.3665	-0.0103575
4.61405	-26.3634	-0.010365
4.61405	-26.3603	-0.0103725
4.61405	-26.3572	-0.01038
4.61405	-26.354	-0.0103875
4.61405	-26.3509	-0.010395
4.61405	-26.3478	-0.0104026
4.61405	-26.3447	-0.0104101
4.61405	-26.3415	-0.0104177
4.61405	-26.3384	-0.0104252
4.61406	-26.3353	-0.0104328
4.61406	-26.3321	-0.0104404
4.61406	-26.329	-0.0104479
4.61406	-26.3259	-0.0104555
4.61406	-26.3227	-0.0104631
4.61406	-26.3196	-0.0104707
4.61406	-26.3165	-0.0104784
4.61406	-26.3133	-0.010486
4.61406	-26.3102	-0.0104936
4.61407	-26.307	-0.0105013
4.61407	-26.3039	-0.0105089
4.61407	-26.3008	-0.0105166
4.61407	-26.2976	-0.0105243
4.61407	-26.2945	-0.010532
4.61407	-26.2913	-0.0105397
4.61407	-26.2882	-0.0105474
4.61407	-26.285	-0.0105551
4.61407	-26.2818	-0.0105628
4.61407	-26.2787	-0.0105705
4.61407	-26.2755	-0.0105783
4.61408	-26.2724	-0.010586
4.61408	-26.2692	-0.0105938
4.61408	-26.266	-0.0106015
4.61408	-26.2629	-0.0106093
4.61408	-26.2597	-0.0106171
4.61408	-26.2565	-0.0106249
4.61408	-26.2534	-0.0106327
4.61408	-26.2502	-0.0106405
4.61408	-26.247	-0.0106483
4.61409	-26.2439	-0.0106562
4.61409	-26.2407	-0.010664
4.61409	-26.2375	-0.0106718
4.61409	-26.2343	-0.0106797
4.61409	-26.2312	-0.0106876
4.61409	-26.228	-0.0106955
4.61409	-26.2248	-0.0107033
4.61409	-26.2216	-0.0107112
4.61409	-26.2184	-0.0107192
4.61409	-26.2152	-0.0107271
4.61409	-26.2121	-0.010735
4.6141	-26.2089	-0.0107429
4.6141	-26.2057	-0.0107509
4.6141	-26.2025	-0.0107588
4.6141	-26.1993	-0.0107668
4.6141	-26.1961	-0.0107748
4.6141	-26.1929	-0.0107828
4.6141	-26.1897	-0.0107908
4.6141	-26.1865	-0.0107988
4.6141	-26.1833	-0.0108068
4.6141	-26.1801	-0.0108148
4.61411	-26.1769	-0.0108228
4.61411	-26.1737	-0.0108309
4.61411	-26.1705	-0.0108389
4.61411	-26.1673	-0.010847
4.61411	-26.1641	-0.010855
4.61411	-26.1609	-0.0108631
4.61411	-26.1576	-0.0108712
4.61411	-26.1544	-0.0108793
4.61411	-26.1512	-0.0108874
4.61411	-26.148	-0.0108956
4.61412	-26.1448	-0.0109037
4.61412	-26.1416	-0.0109118
4.61412	-26.1383	-0.01092
4.61412	-26.1351	-0.0109281
4.61412	-26.1319	-0.0109363
4.61412	-26.1287	-0.0109445
4.61412	-26.1254	-0.0109527
4.61412	-26.1222	-0.0109609
4.61412	-26.119	-0.0109691
4.61412	-26.1157	-0.0109773
4.61413	-26.1125	-0.0109855
4.61413	-26.1093	-0.0109938
4.61413	-26.106	-0.011002
4.61413	-26.1028	-0.0110103
4.61413	-26.0995	-0.0110186
4.61413	-26.0963	-0.0110268
4.61413	-26.0931	-0.0110351
4.61413	-26.0898	-0.0110434
4.61413	-26.0866	-0.0110517
4.61414	-26.0833	-0.0110601
4.61414	-26.0801	-0.0110684
4.61414	-26.0768	-0.0110767
4.61414	-26.0736	-0.0110851
4.61414	-26.0703	-0.0110934
4.61414	-26.0671	-0.0111018
4.61414	-26.0638	-0.0111102
4.61414	-26.0605	-0.0111186
4.61414	-26.0573	-0.011127
4.61414	-26.054	-0.0111354
4.61414	-26.0508	-0.0111438
4.61415	-26.0475	-0.0111523
4.61415	-26.0442	-0.0111607
4.61415	-26.041	-0.0111692
4.61415	-26.0377	-0.0111776
4.61415	-26.0344	-0.0111861
4.61415	-26.0311	-0.0111946
4.61415	-26.0279	-0.0112031
4.61415	-26.0246	-0.0112116
4.61415	-26.0213	-0.0112201
4.61416	-26.018	-0.0112286
4.61416	-26.0147	-0.0112372
4.61416	-26.0115	-0.0112457
4.61416	-26.0082	-0.0112543
4.61416	-26.0049	-0.0112629
4.61416	-26.0016	-0.0112714
4.61416	-25.9983	-0.01128
4.61416	-25.995	-0.0112886
4.61416	-25.9917	-0.0112973
4.61416	-25.9884	-0.0113059
4.61416	-25.9851	-0.0113145
4.61417	-25.9819	-0.0113232
4.61417	-25.9786	-0.0113318
4.61417	-25.9753	-0.0113405
4.61417	-25.972	-0.0113492
4.61417	-25.9687	-0.0113579
4.61417	-25.9653	-0.0113666
4.61417	-25.962	-0.0113753
4.61417	-25.9587	-0.011384
4.61417	-25.9554	-0.0113927
4.61417	-25.9521	-0.0114015
4.61418	-25.9488	-0.0114102
4.61418	-25.9455	-0.011419
4.61418	-25.9422	-0.0114278
4.61418	-25.9389	-0.0114365
4.61418	-25.9355	-0.0114453
4.61418	-25.9322	-0.0114541
4.61418	-25.9289	-0.011463
4.61418	-25.9256	-0.0114718
4.61418	-25.9222	-0.0114806
4.61418	-25.9189	-0.0114895
4.61419	-25.9156	-0.0114984
4.61419	-25.9123	-0.0115072
4.61419	-25.9089	-0.0115161
4.61419	-25.9056	-0.011525
4.61419	-25.9023	-0.0115339
4.61419	-25.8989	-0.0115428
4.61419	-25.8956	-0.0115518
4.61419	-25.8922	-0.0115607
4.61419	-25.8889	-0.0115697
4.61419	-25.8856	-0.0115786
4.6142	-25.8822	-0.0115876
4.6142	-25.8789	-0.0115966
4.6142	-25.8755	-0.0116056
4.6142	-25.8722	-0.0116146
4.6142	-25.8688	-0.0116236
4.6142	-25.8655	-0.0116327
4.6142	-25.8621	-0.0116417
4.6142	-25.8588	-0.0116508
4.6142	-25.8554	-0.0116598
4.61421	-25.852	-0.0116689
4.61421	-25.8487	-0.011678
4.61421	-25.8453	-0.0116871
4.61421	-25.8419	-0.0116962
4.61421	-25.8386	-0.0117053
4.61421	-25.8352	-0.0117145
4.61421	-25.8318	-0.0117236
4.61421	-25.8285	-0.0117328
4.61421	-25.8251	-0.0117419
4.61421	-25.8217	-0.0117511
4.61421	-25.8183	-0.0117603
4.61422	-25.815	-0.0117695
4.61422	-25.8116	-0.0117787
4.61422	-25.8082	-0.011788
4.61422	-25.8048	-0.0117972
4.61422	-25.8014	-0.0118065
4.61422	-25.7981	-0.0118157
4.61422	-25.7947	-0.011825
4.61422	-25.7913	-0.0118343
4.61422	-25.7879	-0.0118436
4.61423	-25.7845	-0.0118529
4.61423	-25.7811	-0.0118622
4.61423	-25.7777	-0.0118716
4.61423	-25.7743	-0.0118809
4.61423	-25.7709	-0.0118903
4.61423	-25.7675	-0.0118996
4.61423	-25.7641	-0.011909
4.61423	-25.7607	-0.0119184
4.61423	-25.7573	-0.0119278
4.61423	-25.7539	-0.0119372
4.61423	-25.7505	-0.0119467
4.61424	-25.7471	-0.0119561
4.61424	-25.7437	-0.0119656
4.61424	-25.7402	-0.011975
4.61424	-25.7368	-0.0119845
4.61424	-25.7334	-0.011994
4.61424	-25.73	-0.0120035
4.61424	-25.7266	-0.012013
4.61424	-25.7231	-0.0120226
4.61424	-25.7197	-0.0120321
4.61424	-25.7163	-0.0120417
4.61425	-25.7129	-0.0120512
4.61425	-25.7094	-0.0120608
4.61425	-25.706	-0.0120704
4.61425	-25.7026	-0.01208
4.61425	-25.6991	-0.0120896
4.61425	-25.6957	-0.0120992
4.61425	-25.6923	-0.0121089
4.61425	-25.6888	-0.0121185
4.61425	-25.6854	-0.0121282
4.61425	-25.6819	-0.0121379
4.61426	-25.6785	-0.0121476
4.61426	-25.675	-0.0121573
4.61426	-25.6716	-0.012167
4.61426	-25.6681	-0.0121767
4.61426	-25.6647	-0.0121865
4.61426	-25.6612	-0.0121962
4.61426	-25.6578	-0.012206
4.61426	-25.6543	-0.0122158
4.61426	-25.6509	-0.0122255
4.61426	-25.6474	-0.0122353
4.61427	-25.6439	-0.0122452
4.61427	-25.6405	-0.012255
4.61427	-25.637	-0.0122648
4.61427	-25.6335	-0.0122747
4.61427	-25.6301	-0.0122846
4.61427	-25.6266	-0.0122944
4.61427	-25.6231	-0.0123043
4.61427	-25.6197	-0.0123142
4.61427	-25.6162	-0.0123242
4.61428	-25.6127	-0.0123341
4.61428	-25.6092	-0.012344
4.61428	-25.6057	-0.012354
4.61428	-25.6023	-0.012364
4.61428	-25.5988	-0.0123739
4.61428	-25.5953	-0.0123839
4.61428	-25.5918	-0.012394
4.61428	-25.5883	-0.012404
4.61428	-25.5848	-0.012414
4.61428	-25.5813	-0.0124241
4.61428	-25.5778	-0.0124341
4.61429	-25.5743	-0.0124442
4.61429	-25.5708	-0.0124543
4.61429	-25.5673	-0.0124644
4.61429	-25.5638	-0.0124745
4.61429	-25.5603	-0.0124846
4.61429	-25.5568	-0.0124948
4.61429	-25.5533	-0.0125049
4.61429	-25.5498	-0.0125151
4.61429	-25.5463	-0.0125253
4.6143	-25.5428	-0.0125355
4.6143	-25.5393	-0.0125457
4.6143	-25.5357	-0.0125559
4.6143	-25.5322	-0.0125662
4.6143	-25.5287	-0.0125764
4.6143	-25.5252	-0.0125867
4.6143	-25.5217	-0.0125969
4.6143	-25.5181	-0.0126072
4.6143	-25.5146	-0.0126175
4.6143	-25.5111	-0.0126279
4.6143	-25.5075	-0.0126382
4.61431	-25.504	-0.0126485
4.61431	-25.5005	-0.0126589
4.61431	-25.4969	-0.0126693
4.61431	-25.4934	-0.0126797
4.61431	-25.4899	-0.0126901
4.61431	-25.4863	-0.0127005
4.61431	-25.4828	-0.0127109
4.61431	-25.4792	-0.0127213
4.61431	-25.4757	-0.0127318
4.61431	-25.4721	-0.0127423
4.61432	-25.4686	-0.0127528
4.61432	-25.465	-0.0127632
4.61432	-25.4615	-0.0127738
4.61432	-25.4579	-0.0127843
4.61432	-25.4544	-0.0127948
4.61432	-25.4508	-0.0128054
4.61432	-25.4472	-0.0128159
4.61432	-25.4437	-0.0128265
4.61432	-25.4401	-0.0128371
4.61433	-25.4365	-0.0128477
4.61433	-25.433	-0.0128584
4.61433	-25.4294	-0.012869
4.61433	-25.4258	-0.0128797
4.61433	-25.4223	-0.0128903
4.61433	-25.4187	-0.012901
4.61433	-25.4151	-0.0129117
4.61433	-25.4115	-0.0129224
4.61433	-25.4079	-0.0129331
4.61433	-25.4044	-0.0129439
4.61433	-25.4008	-0.0129546
4.61434	-25.3972	-0.0129654
4.61434	-25.3936	-0.0129762
4.61434	-25.39	-0.012987
4.61434	-25.3864	-0.0129978
4.61434	-25.3828	-0.0130086
4.61434	-25.3792	-0.0130194
4.61434	-25.3756	-0.0130303
4.61434	-25.372	-0.0130412
4.61434	-25.3684	-0.0130521
4.61435	-25.3648	-0.013063
4.61435	-25.3612	-0.0130739
4.61435	-25.3576	-0.0130848
4.61435	-25.354	-0.0130957
4.61435	-25.3504	-0.0131067
4.61435	-25.3468	-0.0131177
4.61435	-25.3432	-0.0131287
4.61435	-25.3395	-0.0131397
4.61435	-25.3359	-0.0131507
4.61435	-25.3323	-0.0131617
4.61435	-25.3287	-0.0131728
4.61436	-25.325	-0.0131838
4.61436	-25.3214	-0.0131949
4.61436	-25.3178	-0.013206
4.61436	-25.3142	-0.0132171
4.61436	-25.3105	-0.0132282
4.61436	-25.3069	-0.0132394
4.61436	-25.3033	-0.0132505
4.61436	-25.2996	-0.0132617
4.61436	-25.296	-0.0132729
4.61437	-25.2923	-0.0132841
4.61437	-25.2887	-0.0132953
4.61437	-25.2851	-0.0133065
4.61437	-25.2814	-0.0133178
4.61437	-25.2778	-0.013329
4.61437	-25.2741	-0.0133403
4.61437	-25.2705	-0.0133516
4.61437	-25.2668	-0.0133629
4.61437	-25.2631	-0.0133742
4.61437	-25.2595	-0.0133855
4.61437	-25.2558	-0.0133969
4.61438	-25.2522	-0.0134083
4.61438	-25.2485	-0.0134196
4.61438	-25.2448	-0.013431
4.61438	-25.2412	-0.0134425
4.61438	-25.2375	-0.0134539
4.61438	-25.2338	-0.0134653
4.61438	-25.2301	-0.0134768
4.61438	-25.2265	-0.0134883
4.61438	-25.2228	-0.0134998
4.61438	-25.2191	-0.0135113
4.61439	-25.2154	-0.0135228
4.61439	-25.2117	-0.0135343
4.61439	-25.2081	-0.0135459
4.61439	-25.2044	-0.0135575
4.61439	-25.2007	-0.0135691
4.61439	-25.197	-0.0135807
4.61439	-25.1933	-0.0135923
4.61439	-25.1896	-0.0136039
4.61439	-25.1859	-0.0136156
4.6144	-25.1822	-0.0136273
4.6144	-25.1785	-0.0136389
4.6144	-25.1748	-0.0136506
4.6144	-25.1711	-0.0136624
4.6144	-25.1674	-0.0136741
4.6144	-25.1637	-0.0136858
4.6144	-25.16	-0.0136976
4.6144	-25.1562	-0.0137094
4.6144	-25.1525	-0.0137212
4.6144	-25.1488	-0.013733
4.6144	-25.1451	-0.0137448
4.61441	-25.1414	-0.0137567
4.61441	-25.1377	-0.0137686
4.61441	-25.1339	-0.0137804
4.61441	-25.1302	-0.0137923
4.61441	-25.1265	-0.0138042
4.61441	-25.1227	-0.0138162
4.61441	-25.119	-0.0138281
4.61441	-25.1153	-0.0138401
4.61441	-25.1115	-0.0138521
4.61442	-25.1078	-0.0138641
4.61442	-25.1041	-0.0138761
4.61442	-25.1003	-0.0138881
4.61442	-25.0966	-0.0139002
4.61442	-25.0928	-0.0139122
4.61442	-25.0891	-0.0139243
4.61442	-25.0853	-0.0139364
4.61442	-25.0816	-0.0139485
4.61442	-25.0778	-0.0139607
4.61442	-25.0741	-0.0139728
4.61442	-25.0703	-0.013985
4.61443	-25.0665	-0.0139972
4.61443	-25.0628	-0.0140094
4.61443	-25.059	-0.0140216
4.61443	-25.0552	-0.0140338
4.61443	-25.0515	-0.0140461
4.61443	-25.0477	-0.0140583
4.61443	-25.0439	-0.0140706
4.61443	-25.0402	-0.0140829
4.61443	-25.0364	-0.0140953
4.61444	-25.0326	-0.0141076
4.61444	-25.0288	-0.01412
4.61444	-25.025	-0.0141323
4.61444	-25.0212	-0.0141447
4.61444	-25.0175	-0.0141571
4.61444	-25.0137	-0.0141696
4.61444	-25.0099	-0.014182
4.61444	-25.0061	-0.0141945
4.61444	-25.0023	-0.0142069
4.61444	-24.9985	-0.0142194
4.61444	-24.9947	-0.014232
4.61445	-24.9909	-0.0142445
4.61445	-24.9871	-0.014257
4.61445	-24.9833	-0.0142696
4.61445	-24.9795	-0.0142822
4.61445	-24.9757	-0.0142948
4.61445	-24.9719	-0.0143074
4.61445	-24.968	-0.0143201
4.61445	-24.9642	-0.0143327
4.61445	-24.9604	-0.0143454
4.61446	-24.9566	-0.0143581
4.61446	-24.9528	-0.0143708
4.61446	-24.9489	-0.0143835
4.61446	-24.9451	-0.0143963
4.61446	-24.9413	-0.0144091
4.61446	-24.9375	-0.0144218
4.61446	-24.9336	-0.0144346
4.61446	-24.9298	-0.0144475
4.61446	-24.926	-0.0144603
4.61446	-24.9221	-0.0144732
4.61447	-24.9183	-0.014486
4.61447	-24.9144	-0.0144989
4.61447	-24.9106	-0.0145119
4.61447	-24.9067	-0.0145248
4.61447	-24.9029	-0.0145377
4.61447	-24.899	-0.0145507
4.61447	-24.8952	-0.0145637
4.61447	-24.8913	-0.0145767
4.61447	-24.8875	-0.0145897
4.61447	-24.8836	-0.0146028
4.61447	-24.8797	-0.0146158
4.61448	-24.8759	-0.0146289
4.61448	-24.872	-0.014642
4.61448	-24.8681	-0.0146551
4.61448	-24.8643	-0.0146683
4.61448	-24.8604	-0.0146814
4.61448	-24.8565	-0.0146946
4.61448	-24.8527	-0.0147078
4.61448	-24.8488	-0.014721
4.61448	-24.8449	-0.0147343
4.61449	-24.841	-0.0147475
4.61449	-24.8371	-0.0147608
4.61449	-24.8332	-0.0147741
4.61449	-24.8293	-0.0147874
4.61449	-24.8255	-0.0148007
4.61449	-24.8216	-0.0148141
4.61449	-24.8177	-0.0148274
4.61449	-24.8138	-0.0148408
4.61449	-24.8099	-0.0148542
4.61449	-24.806	-0.0148677
4.61449	-24.8021	-0.0148811
4.6145	-24.7982	-0.0148946
4.6145	-24.7942	-0.0149081
4.6145	-24.7903	-0.0149216
4.6145	-24.7864	-0.0149351
4.6145	-24.7825	-0.0149486
4.6145	-24.7786	-0.0149622
4.6145	-24.7747	-0.0149758
4.6145	-24.7707	-0.0149894
4.6145	-24.7668	-0.015003
4.61451	-24.7629	-0.0150167
4.61451	-24.759	-0.0150303
4.61451	-24.755	-0.015044
4.61451	-24.7511	-0.0150577
4.61451	-24.7472	-0.0150714
4.61451	-24.7432	-0.0150852
4.61451	-24.7393	-0.0150989
4.61451	-24.7354	-0.0151127
4.61451	-24.7314	-0.0151265
4.61451	-24.7275	-0.0151404
4.61451	-24.7235	-0.0151542
4.61452	-24.7196	-0.0151681
4.61452	-24.7156	-0.015182
4.61452	-24.7117	-0.0151959
4.61452	-24.7077	-0.0152098
4.61452	-24.7037	-0.0152237
4.61452	-24.6998	-0.0152377
4.61452	-24.6958	-0.0152517
4.61452	-24.6918	-0.0152657
4.61452	-24.6879	-0.0152797
4.61453	-24.6839	-0.0152938
4.61453	-24.6799	-0.0153079
4.61453	-24.676	-0.015322
4.61453	-24.672	-0.0153361
4.61453	-24.668	-0.0153502
4.61453	-24.664	-0.0153644
4.61453	-24.66	-0.0153785
4.61453	-24.6561	-0.0153927
4.61453	-24.6521	-0.0154069
4.61453	-24.6481	-0.0154212
4.61454	-24.6441	-0.0154354
4.61454	-24.6401	-0.0154497
4.61454	-24.6361	-0.015464
4.61454	-24.6321	-0.0154784
4.61454	-24.6281	-0.0154927
4.61454	-24.6241	-0.0155071
4.61454	-24.6201	-0.0155215
4.61454	-24.6161	-0.0155359
4.61454	-24.6121	-0.0155503
4.61454	-24.6081	-0.0155648
4.61454	-24.604	-0.0155792
4.61455	-24.6	-0.0155937
4.61455	-24.596	-0.0156082
4.61455	-24.592	-0.0156228
4.61455	-24.588	-0.0156373
4.61455	-24.5839	-0.0156519
4.61455	-24.5799	-0.0156665
4.61455	-24.5759	-0.0156812
4.61455	-24.5718	-0.0156958
4.61455	-24.5678	-0.0157105
4.61456	-24.5638	-0.0157252
4.61456	-24.5597	-0.0157399
4.61456	-24.5557	-0.0157546
4.61456	-24.5516	-0.0157694
4.61456	-24.5476	-0.0157842
4.61456	-24.5435	-0.015799
4.61456	-24.5395	-0.0158138
4.61456	-24.5354	-0.0158286
4.61456	-24.5314	-0.0158435
4.61456	-24.5273	-0.0158584
4.61456	-24.5233	-0.0158733
4.61457	-24.5192	-0.0158883
4.61457	-24.5151	-0.0159032
4.61457	-24.5111	-0.0159182
4.61457	-24.507	-0.0159332
4.61457	-24.5029	-0.0159482
4.61457	-24.4988	-0.0159633
4.61457	-24.4948	-0.0159784
4.61457	-24.4907	-0.0159935
4.61457	-24.4866	-0.0160086
4.61458	-24.4825	-0.0160237
4.61458	-24.4784	-0.0160389
4.61458	-24.4743	-0.0160541
4.61458	-24.4703	-0.0160693
4.61458	-24.4662	-0.0160845
4.61458	-24.4621	-0.0160998
4.61458	-24.458	-0.0161151
4.61458	-24.4539	-0.0161304
4.61458	-24.4498	-0.0161457
4.61458	-24.4457	-0.0161611
4.61458	-24.4415	-0.0161764
4.61459	-24.4374	-0.0161918
4.61459	-24.4333	-0.0162073
4.61459	-24.4292	-0.0162227
4.61459	-24.4251	-0.0162382
4.61459	-24.421	-0.0162537
4.61459	-24.4169	-0.0162692
4.61459	-24.4127	-0.0162847
4.61459	-24.4086	-0.0163003
4.61459	-24.4045	-0.0163159
4.61459	-24.4003	-0.0163315
4.6146	-24.3962	-0.0163471
4.6146	-24.3921	-0.0163628
4.6146	-24.3879	-0.0163785
4.6146	-24.3838	-0.0163942
4.6146	-24.3796	-0.0164099
4.6146	-24.3755	-0.0164257
4.6146	-24.3714	-0.0164414
4.6146	-24.3672	-0.0164572
4.6146	-24.363	-0.0164731
4.61461	-24.3589	-0.0164889
4.61461	-24.3547	-0.0165048
4.61461	-24.3506	-0.0165207
4.61461	-24.3464	-0.0165366
4.61461	-24.3422	-0.0165526
4.61461	-24.3381	-0.0165686
4.61461	-24.3339	-0.0165846
4.61461	-24.3297	-0.0166006
4.61461	-24.3256	-0.0166166
4.61461	-24.3214	-0.0166327
4.61461	-24.3172	-0.0166488
4.61462	-24.313	-0.0166649
4.61462	-24.3088	-0.0166811
4.61462	-24.3047	-0.0166973
4.61462	-24.3005	-0.0167135
4.61462	-24.2963	-0.0167297
4.61462	-24.2921	-0.016746
4.61462	-24.2879	-0.0167622
4.61462	-24.2837	-0.0167785
4.61462	-24.2795	-0.0167949
4.61463	-24.2753	-0.0168112
4.61463	-24.2711	-0.0168276
4.61463	-24.2669	-0.016844
4.61463	-24.2626	-0.0168604
4.61463	-24.2584	-0.0168769
4.61463	-24.2542	-0.0168934
4.61463	-24.25	-0.0169099
4.61463	-24.2458	-0.0169264
4.61463	-24.2416	-0.016943
4.61463	-24.2373	-0.0169595
4.61463	-24.2331	-0.0169762
4.61464	-24.2289	-0.0169928
4.61464	-24.2246	-0.0170095
4.61464	-24.2204	-0.0170261
4.61464	-24.2162	-0.0170429
4.61464	-24.2119	-0.0170596
4.61464	-24.2077	-0.0170764
4.61464	-24.2034	-0.0170932
4.61464	-24.1992	-0.01711
4.61464	-24.1949	-0.0171268
4.61464	-24.1907	-0.0171437
4.61465	-24.1864	-0.0171606
4.61465	-24.1822	-0.0171775
4.61465	-24.1779	-0.0171945
4.61465	-24.1736	-0.0172115
4.61465	-24.1694	-0.0172285
4.61465	-24.1651	-0.0172455
4.61465	-24.1608	-0.0172626
4.61465	-24.1565	-0.0172797
4.61465	-24.1523	-0.0172968
4.61465	-24.148	-0.0173139
4.61466	-24.1437	-0.0173311
4.61466	-24.1394	-0.0173483
4.61466	-24.1351	-0.0173655
4.61466	-24.1308	-0.0173828
4.61466	-24.1266	-0.0174
4.61466	-24.1223	-0.0174174
4.61466	-24.118	-0.0174347
4.61466	-24.1137	-0.017452
4.61466	-24.1094	-0.0174694
4.61466	-24.1051	-0.0174869
4.61467	-24.1007	-0.0175043
4.61467	-24.0964	-0.0175218
4.61467	-24.0921	-0.0175393
4.61467	-24.0878	-0.0175568
4.61467	-24.0835	-0.0175744
4.61467	-24.0792	-0.0175919
4.61467	-24.0748	-0.0176096
4.61467	-24.0705	-0.0176272
4.61467	-24.0662	-0.0176449
4.61468	-24.0619	-0.0176626
4.61468	-24.0575	-0.0176803
4.61468	-24.0532	-0.017698
4.61468	-24.0488	-0.0177158
4.61468	-24.0445	-0.0177336
4.61468	-24.0402	-0.0177515
4.61468	-24.0358	-0.0177694
4.61468	-24.0315	-0.0177873
4.61468	-24.0271	-0.0178052
4.61468	-24.0228	-0.0178231
4.61468	-24.0184	-0.0178411
4.61469	-24.014	-0.0178591
4.61469	-24.0097	-0.0178772
4.61469	-24.0053	-0.0178952
4.61469	-24.0009	-0.0179134
4.61469	-23.9966	-0.0179315
4.61469	-23.9922	-0.0179496
4.61469	-23.9878	-0.0179678
4.61469	-23.9835	-0.017986
4.61469	-23.9791	-0.0180043
4.6147	-23.9747	-0.0180226
4.6147	-23.9703	-0.0180409
4.6147	-23.9659	-0.0180592
4.6147	-23.9615	-0.0180776
4.6147	-23.9571	-0.018096
4.6147	-23.9527	-0.0181144
4.6147	-23.9483	-0.0181329
4.6147	-23.9439	-0.0181514
4.6147	-23.9395	-0.0181699
4.6147	-23.9351	-0.0181884
4.6147	-23.9307	-0.018207
4.61471	-23.9263	-0.0182256
4.61471	-23.9219	-0.0182442
4.61471	-23.9175	-0.0182629
4.61471	-23.913	-0.0182816
4.61471	-23.9086	-0.0183003
4.61471	-23.9042	-0.0183191
4.61471	-23.8998	-0.0183379
4.61471	-23.8953	-0.0183567
4.61471	-23.8909	-0.0183756
4.61471	-23.8864	-0.0183945
4.61472	-23.882	-0.0184134
4.61472	-23.8776	-0.0184323
4.61472	-23.8731	-0.0184513
4.61472	-23.8687	-0.0184703
