Frequency (GHz)	DB(|S(1,1)|) : demo 1	DB(|S(2,1)|) : demo 1
5.162	-35.5221	-0.00127499
5.162	-35.5207	-0.00127541
5.162	-35.5193	-0.00127583
5.162	-35.5179	-0.00127625
5.162	-35.5165	-0.00127668
5.162	-35.5151	-0.0012771
5.16201	-35.5137	-0.00127752
5.16201	-35.5122	-0.00127795
5.16201	-35.5108	-0.00127837
5.16201	-35.5094	-0.00127879
5.16201	-35.508	-0.00127922
5.16201	-35.5066	-0.00127964
5.16201	-35.5052	-0.00128007
5.16201	-35.5038	-0.00128049
5.16201	-35.5024	-0.00128092
5.16202	-35.501	-0.00128134
5.16202	-35.4996	-0.00128177
5.16202	-35.4981	-0.00128219
5.16202	-35.4967	-0.00128262
5.16202	-35.4953	-0.00128305
5.16202	-35.4939	-0.00128348
5.16202	-35.4925	-0.0012839
5.16202	-35.4911	-0.00128433
5.16202	-35.4896	-0.00128476
5.16202	-35.4882	-0.00128519
5.16202	-35.4868	-0.00128561
5.16203	-35.4854	-0.00128604
5.16203	-35.484	-0.00128647
5.16203	-35.4826	-0.0012869
5.16203	-35.4811	-0.00128733
5.16203	-35.4797	-0.00128776
5.16203	-35.4783	-0.00128819
5.16203	-35.4769	-0.00128862
5.16203	-35.4755	-0.00128905
5.16203	-35.474	-0.00128948
5.16203	-35.4726	-0.00128991
5.16204	-35.4712	-0.00129034
5.16204	-35.4698	-0.00129078
5.16204	-35.4684	-0.00129121
5.16204	-35.4669	-0.00129164
5.16204	-35.4655	-0.00129207
5.16204	-35.4641	-0.0012925
5.16204	-35.4627	-0.00129294
5.16204	-35.4612	-0.00129337
5.16204	-35.4598	-0.0012938
5.16204	-35.4584	-0.00129424
5.16205	-35.457	-0.00129467
5.16205	-35.4555	-0.00129511
5.16205	-35.4541	-0.00129554
5.16205	-35.4527	-0.00129598
5.16205	-35.4513	-0.00129641
5.16205	-35.4498	-0.00129685
5.16205	-35.4484	-0.00129728
5.16205	-35.447	-0.00129772
5.16205	-35.4456	-0.00129815
5.16205	-35.4441	-0.00129859
5.16206	-35.4427	-0.00129903
5.16206	-35.4413	-0.00129946
5.16206	-35.4398	-0.0012999
5.16206	-35.4384	-0.00130034
5.16206	-35.437	-0.00130078
5.16206	-35.4355	-0.00130122
5.16206	-35.4341	-0.00130165
5.16206	-35.4327	-0.00130209
5.16206	-35.4312	-0.00130253
5.16207	-35.4298	-0.00130297
5.16207	-35.4284	-0.00130341
5.16207	-35.4269	-0.00130385
5.16207	-35.4255	-0.00130429
5.16207	-35.4241	-0.00130473
5.16207	-35.4226	-0.00130517
5.16207	-35.4212	-0.00130561
5.16207	-35.4198	-0.00130605
5.16207	-35.4183	-0.0013065
5.16207	-35.4169	-0.00130694
5.16207	-35.4154	-0.00130738
5.16208	-35.414	-0.00130782
5.16208	-35.4126	-0.00130827
5.16208	-35.4111	-0.00130871
5.16208	-35.4097	-0.00130915
5.16208	-35.4082	-0.00130959
5.16208	-35.4068	-0.00131004
5.16208	-35.4054	-0.00131048
5.16208	-35.4039	-0.00131093
5.16208	-35.4025	-0.00131137
5.16209	-35.401	-0.00131182
5.16209	-35.3996	-0.00131226
5.16209	-35.3981	-0.00131271
5.16209	-35.3967	-0.00131315
5.16209	-35.3953	-0.0013136
5.16209	-35.3938	-0.00131405
5.16209	-35.3924	-0.00131449
5.16209	-35.3909	-0.00131494
5.16209	-35.3895	-0.00131539
5.16209	-35.388	-0.00131583
5.16209	-35.3866	-0.00131628
5.1621	-35.3851	-0.00131673
5.1621	-35.3837	-0.00131718
5.1621	-35.3822	-0.00131763
5.1621	-35.3808	-0.00131808
5.1621	-35.3793	-0.00131853
5.1621	-35.3779	-0.00131897
5.1621	-35.3764	-0.00131942
5.1621	-35.375	-0.00131987
5.1621	-35.3735	-0.00132033
5.1621	-35.3721	-0.00132078
5.16211	-35.3706	-0.00132123
5.16211	-35.3692	-0.00132168
5.16211	-35.3677	-0.00132213
5.16211	-35.3663	-0.00132258
5.16211	-35.3648	-0.00132303
5.16211	-35.3634	-0.00132349
5.16211	-35.3619	-0.00132394
5.16211	-35.3605	-0.00132439
5.16211	-35.359	-0.00132485
5.16212	-35.3575	-0.0013253
5.16212	-35.3561	-0.00132575
5.16212	-35.3546	-0.00132621
5.16212	-35.3532	-0.00132666
5.16212	-35.3517	-0.00132712
5.16212	-35.3503	-0.00132757
5.16212	-35.3488	-0.00132803
5.16212	-35.3473	-0.00132848
5.16212	-35.3459	-0.00132894
5.16212	-35.3444	-0.00132939
5.16212	-35.343	-0.00132985
5.16213	-35.3415	-0.00133031
5.16213	-35.34	-0.00133076
5.16213	-35.3386	-0.00133122
5.16213	-35.3371	-0.00133168
5.16213	-35.3357	-0.00133214
5.16213	-35.3342	-0.0013326
5.16213	-35.3327	-0.00133305
5.16213	-35.3313	-0.00133351
5.16213	-35.3298	-0.00133397
5.16214	-35.3283	-0.00133443
5.16214	-35.3269	-0.00133489
5.16214	-35.3254	-0.00133535
5.16214	-35.3239	-0.00133581
5.16214	-35.3225	-0.00133627
5.16214	-35.321	-0.00133673
5.16214	-35.3195	-0.0013372
5.16214	-35.3181	-0.00133766
5.16214	-35.3166	-0.00133812
5.16214	-35.3151	-0.00133858
5.16214	-35.3137	-0.00133904
5.16215	-35.3122	-0.00133951
5.16215	-35.3107	-0.00133997
5.16215	-35.3092	-0.00134043
5.16215	-35.3078	-0.0013409
5.16215	-35.3063	-0.00134136
5.16215	-35.3048	-0.00134182
5.16215	-35.3034	-0.00134229
5.16215	-35.3019	-0.00134275
5.16215	-35.3004	-0.00134322
5.16216	-35.2989	-0.00134368
5.16216	-35.2975	-0.00134415
5.16216	-35.296	-0.00134462
5.16216	-35.2945	-0.00134508
5.16216	-35.293	-0.00134555
5.16216	-35.2916	-0.00134602
5.16216	-35.2901	-0.00134648
5.16216	-35.2886	-0.00134695
5.16216	-35.2871	-0.00134742
5.16216	-35.2856	-0.00134789
5.16216	-35.2842	-0.00134836
5.16217	-35.2827	-0.00134883
5.16217	-35.2812	-0.00134929
5.16217	-35.2797	-0.00134976
5.16217	-35.2782	-0.00135023
5.16217	-35.2768	-0.0013507
5.16217	-35.2753	-0.00135117
5.16217	-35.2738	-0.00135164
5.16217	-35.2723	-0.00135212
5.16217	-35.2708	-0.00135259
5.16217	-35.2694	-0.00135306
5.16218	-35.2679	-0.00135353
5.16218	-35.2664	-0.001354
5.16218	-35.2649	-0.00135448
5.16218	-35.2634	-0.00135495
5.16218	-35.2619	-0.00135542
5.16218	-35.2604	-0.00135589
5.16218	-35.259	-0.00135637
5.16218	-35.2575	-0.00135684
5.16218	-35.256	-0.00135732
5.16219	-35.2545	-0.00135779
5.16219	-35.253	-0.00135827
5.16219	-35.2515	-0.00135874
5.16219	-35.25	-0.00135922
5.16219	-35.2485	-0.00135969
5.16219	-35.247	-0.00136017
5.16219	-35.2456	-0.00136065
5.16219	-35.2441	-0.00136112
5.16219	-35.2426	-0.0013616
5.16219	-35.2411	-0.00136208
5.16219	-35.2396	-0.00136256
5.1622	-35.2381	-0.00136303
5.1622	-35.2366	-0.00136351
5.1622	-35.2351	-0.00136399
5.1622	-35.2336	-0.00136447
5.1622	-35.2321	-0.00136495
5.1622	-35.2306	-0.00136543
5.1622	-35.2291	-0.00136591
5.1622	-35.2276	-0.00136639
5.1622	-35.2261	-0.00136687
5.16221	-35.2246	-0.00136735
5.16221	-35.2231	-0.00136783
5.16221	-35.2216	-0.00136831
5.16221	-35.2201	-0.0013688
5.16221	-35.2186	-0.00136928
5.16221	-35.2171	-0.00136976
5.16221	-35.2156	-0.00137024
5.16221	-35.2141	-0.00137073
5.16221	-35.2126	-0.00137121
5.16221	-35.2111	-0.00137169
5.16221	-35.2096	-0.00137218
5.16222	-35.2081	-0.00137266
5.16222	-35.2066	-0.00137315
5.16222	-35.2051	-0.00137363
5.16222	-35.2036	-0.00137412
5.16222	-35.2021	-0.0013746
5.16222	-35.2006	-0.00137509
5.16222	-35.1991	-0.00137558
5.16222	-35.1976	-0.00137606
5.16222	-35.1961	-0.00137655
5.16223	-35.1946	-0.00137704
5.16223	-35.1931	-0.00137753
5.16223	-35.1916	-0.00137801
5.16223	-35.1901	-0.0013785
5.16223	-35.1886	-0.00137899
5.16223	-35.187	-0.00137948
5.16223	-35.1855	-0.00137997
5.16223	-35.184	-0.00138046
5.16223	-35.1825	-0.00138095
5.16223	-35.181	-0.00138144
5.16223	-35.1795	-0.00138193
5.16224	-35.178	-0.00138242
5.16224	-35.1765	-0.00138291
5.16224	-35.175	-0.0013834
5.16224	-35.1734	-0.0013839
5.16224	-35.1719	-0.00138439
5.16224	-35.1704	-0.00138488
5.16224	-35.1689	-0.00138537
5.16224	-35.1674	-0.00138587
5.16224	-35.1659	-0.00138636
5.16225	-35.1643	-0.00138685
5.16225	-35.1628	-0.00138735
5.16225	-35.1613	-0.00138784
5.16225	-35.1598	-0.00138834
5.16225	-35.1583	-0.00138883
5.16225	-35.1568	-0.00138933
5.16225	-35.1552	-0.00138982
5.16225	-35.1537	-0.00139032
5.16225	-35.1522	-0.00139082
5.16225	-35.1507	-0.00139131
5.16226	-35.1492	-0.00139181
5.16226	-35.1476	-0.00139231
5.16226	-35.1461	-0.00139281
5.16226	-35.1446	-0.0013933
5.16226	-35.1431	-0.0013938
5.16226	-35.1415	-0.0013943
5.16226	-35.14	-0.0013948
5.16226	-35.1385	-0.0013953
5.16226	-35.137	-0.0013958
5.16226	-35.1354	-0.0013963
5.16226	-35.1339	-0.0013968
5.16227	-35.1324	-0.0013973
5.16227	-35.1309	-0.0013978
5.16227	-35.1293	-0.0013983
5.16227	-35.1278	-0.00139881
5.16227	-35.1263	-0.00139931
5.16227	-35.1248	-0.00139981
5.16227	-35.1232	-0.00140031
5.16227	-35.1217	-0.00140082
5.16227	-35.1202	-0.00140132
5.16228	-35.1186	-0.00140182
5.16228	-35.1171	-0.00140233
5.16228	-35.1156	-0.00140283
5.16228	-35.114	-0.00140334
5.16228	-35.1125	-0.00140384
5.16228	-35.111	-0.00140435
5.16228	-35.1094	-0.00140486
5.16228	-35.1079	-0.00140536
5.16228	-35.1064	-0.00140587
5.16228	-35.1048	-0.00140638
5.16228	-35.1033	-0.00140688
5.16229	-35.1018	-0.00140739
5.16229	-35.1002	-0.0014079
5.16229	-35.0987	-0.00140841
5.16229	-35.0971	-0.00140892
5.16229	-35.0956	-0.00140942
5.16229	-35.0941	-0.00140993
5.16229	-35.0925	-0.00141044
5.16229	-35.091	-0.00141095
5.16229	-35.0895	-0.00141146
5.1623	-35.0879	-0.00141197
5.1623	-35.0864	-0.00141249
5.1623	-35.0848	-0.001413
5.1623	-35.0833	-0.00141351
5.1623	-35.0817	-0.00141402
5.1623	-35.0802	-0.00141453
5.1623	-35.0787	-0.00141505
5.1623	-35.0771	-0.00141556
5.1623	-35.0756	-0.00141607
5.1623	-35.074	-0.00141659
5.1623	-35.0725	-0.0014171
5.16231	-35.0709	-0.00141762
5.16231	-35.0694	-0.00141813
5.16231	-35.0678	-0.00141865
5.16231	-35.0663	-0.00141916
5.16231	-35.0647	-0.00141968
5.16231	-35.0632	-0.00142019
5.16231	-35.0616	-0.00142071
5.16231	-35.0601	-0.00142123
5.16231	-35.0585	-0.00142174
5.16232	-35.057	-0.00142226
5.16232	-35.0554	-0.00142278
5.16232	-35.0539	-0.0014233
5.16232	-35.0523	-0.00142382
5.16232	-35.0508	-0.00142434
5.16232	-35.0492	-0.00142486
5.16232	-35.0477	-0.00142538
5.16232	-35.0461	-0.0014259
5.16232	-35.0446	-0.00142642
5.16232	-35.043	-0.00142694
5.16233	-35.0415	-0.00142746
5.16233	-35.0399	-0.00142798
5.16233	-35.0383	-0.0014285
5.16233	-35.0368	-0.00142902
5.16233	-35.0352	-0.00142955
5.16233	-35.0337	-0.00143007
5.16233	-35.0321	-0.00143059
5.16233	-35.0306	-0.00143112
5.16233	-35.029	-0.00143164
5.16233	-35.0274	-0.00143217
5.16233	-35.0259	-0.00143269
5.16234	-35.0243	-0.00143322
5.16234	-35.0228	-0.00143374
5.16234	-35.0212	-0.00143427
5.16234	-35.0196	-0.00143479
5.16234	-35.0181	-0.00143532
5.16234	-35.0165	-0.00143585
5.16234	-35.0149	-0.00143637
5.16234	-35.0134	-0.0014369
5.16234	-35.0118	-0.00143743
5.16235	-35.0102	-0.00143796
5.16235	-35.0087	-0.00143849
5.16235	-35.0071	-0.00143902
5.16235	-35.0055	-0.00143954
5.16235	-35.004	-0.00144007
5.16235	-35.0024	-0.0014406
5.16235	-35.0008	-0.00144114
5.16235	-34.9993	-0.00144167
5.16235	-34.9977	-0.0014422
5.16235	-34.9961	-0.00144273
5.16235	-34.9946	-0.00144326
5.16236	-34.993	-0.00144379
5.16236	-34.9914	-0.00144433
5.16236	-34.9898	-0.00144486
5.16236	-34.9883	-0.00144539
5.16236	-34.9867	-0.00144593
5.16236	-34.9851	-0.00144646
5.16236	-34.9835	-0.001447
5.16236	-34.982	-0.00144753
5.16236	-34.9804	-0.00144807
5.16237	-34.9788	-0.0014486
5.16237	-34.9772	-0.00144914
5.16237	-34.9757	-0.00144967
5.16237	-34.9741	-0.00145021
5.16237	-34.9725	-0.00145075
5.16237	-34.9709	-0.00145129
5.16237	-34.9694	-0.00145182
5.16237	-34.9678	-0.00145236
5.16237	-34.9662	-0.0014529
5.16237	-34.9646	-0.00145344
5.16237	-34.963	-0.00145398
5.16238	-34.9615	-0.00145452
5.16238	-34.9599	-0.00145506
5.16238	-34.9583	-0.0014556
5.16238	-34.9567	-0.00145614
5.16238	-34.9551	-0.00145668
5.16238	-34.9535	-0.00145722
5.16238	-34.952	-0.00145776
5.16238	-34.9504	-0.00145831
5.16238	-34.9488	-0.00145885
5.16238	-34.9472	-0.00145939
5.16239	-34.9456	-0.00145994
5.16239	-34.944	-0.00146048
5.16239	-34.9424	-0.00146102
5.16239	-34.9408	-0.00146157
5.16239	-34.9393	-0.00146211
5.16239	-34.9377	-0.00146266
5.16239	-34.9361	-0.00146321
5.16239	-34.9345	-0.00146375
5.16239	-34.9329	-0.0014643
5.1624	-34.9313	-0.00146484
5.1624	-34.9297	-0.00146539
5.1624	-34.9281	-0.00146594
5.1624	-34.9265	-0.00146649
5.1624	-34.9249	-0.00146704
5.1624	-34.9233	-0.00146759
5.1624	-34.9217	-0.00146813
5.1624	-34.9202	-0.00146868
5.1624	-34.9186	-0.00146923
5.1624	-34.917	-0.00146978
5.1624	-34.9154	-0.00147033
5.16241	-34.9138	-0.00147089
5.16241	-34.9122	-0.00147144
5.16241	-34.9106	-0.00147199
5.16241	-34.909	-0.00147254
5.16241	-34.9074	-0.00147309
5.16241	-34.9058	-0.00147365
5.16241	-34.9042	-0.0014742
5.16241	-34.9026	-0.00147475
5.16241	-34.901	-0.00147531
5.16242	-34.8994	-0.00147586
5.16242	-34.8978	-0.00147642
5.16242	-34.8962	-0.00147697
5.16242	-34.8946	-0.00147753
5.16242	-34.893	-0.00147809
5.16242	-34.8914	-0.00147864
5.16242	-34.8897	-0.0014792
5.16242	-34.8881	-0.00147976
5.16242	-34.8865	-0.00148031
5.16242	-34.8849	-0.00148087
5.16242	-34.8833	-0.00148143
5.16243	-34.8817	-0.00148199
5.16243	-34.8801	-0.00148255
5.16243	-34.8785	-0.00148311
5.16243	-34.8769	-0.00148367
5.16243	-34.8753	-0.00148423
5.16243	-34.8737	-0.00148479
5.16243	-34.8721	-0.00148535
5.16243	-34.8704	-0.00148591
5.16243	-34.8688	-0.00148647
5.16244	-34.8672	-0.00148704
5.16244	-34.8656	-0.0014876
5.16244	-34.864	-0.00148816
5.16244	-34.8624	-0.00148873
5.16244	-34.8608	-0.00148929
5.16244	-34.8592	-0.00148985
5.16244	-34.8575	-0.00149042
5.16244	-34.8559	-0.00149098
5.16244	-34.8543	-0.00149155
5.16244	-34.8527	-0.00149211
5.16244	-34.8511	-0.00149268
5.16245	-34.8495	-0.00149325
5.16245	-34.8478	-0.00149381
5.16245	-34.8462	-0.00149438
5.16245	-34.8446	-0.00149495
5.16245	-34.843	-0.00149552
5.16245	-34.8414	-0.00149609
5.16245	-34.8397	-0.00149666
5.16245	-34.8381	-0.00149723
5.16245	-34.8365	-0.0014978
5.16245	-34.8349	-0.00149837
5.16246	-34.8332	-0.00149894
5.16246	-34.8316	-0.00149951
5.16246	-34.83	-0.00150008
5.16246	-34.8284	-0.00150065
5.16246	-34.8267	-0.00150122
5.16246	-34.8251	-0.0015018
5.16246	-34.8235	-0.00150237
5.16246	-34.8219	-0.00150294
5.16246	-34.8202	-0.00150352
5.16247	-34.8186	-0.00150409
5.16247	-34.817	-0.00150467
5.16247	-34.8153	-0.00150524
5.16247	-34.8137	-0.00150582
5.16247	-34.8121	-0.00150639
5.16247	-34.8105	-0.00150697
5.16247	-34.8088	-0.00150755
5.16247	-34.8072	-0.00150812
5.16247	-34.8056	-0.0015087
5.16247	-34.8039	-0.00150928
5.16247	-34.8023	-0.00150986
5.16248	-34.8007	-0.00151044
5.16248	-34.799	-0.00151102
5.16248	-34.7974	-0.0015116
5.16248	-34.7957	-0.00151218
5.16248	-34.7941	-0.00151276
5.16248	-34.7925	-0.00151334
5.16248	-34.7908	-0.00151392
5.16248	-34.7892	-0.0015145
5.16248	-34.7876	-0.00151508
5.16249	-34.7859	-0.00151566
5.16249	-34.7843	-0.00151625
5.16249	-34.7826	-0.00151683
5.16249	-34.781	-0.00151741
5.16249	-34.7794	-0.001518
5.16249	-34.7777	-0.00151858
5.16249	-34.7761	-0.00151917
5.16249	-34.7744	-0.00151975
5.16249	-34.7728	-0.00152034
5.16249	-34.7711	-0.00152093
5.16249	-34.7695	-0.00152151
5.1625	-34.7679	-0.0015221
5.1625	-34.7662	-0.00152269
5.1625	-34.7646	-0.00152328
5.1625	-34.7629	-0.00152386
5.1625	-34.7613	-0.00152445
5.1625	-34.7596	-0.00152504
5.1625	-34.758	-0.00152563
5.1625	-34.7563	-0.00152622
5.1625	-34.7547	-0.00152681
5.16251	-34.753	-0.0015274
5.16251	-34.7514	-0.001528
5.16251	-34.7497	-0.00152859
5.16251	-34.7481	-0.00152918
5.16251	-34.7464	-0.00152977
5.16251	-34.7448	-0.00153036
5.16251	-34.7431	-0.00153096
5.16251	-34.7415	-0.00153155
5.16251	-34.7398	-0.00153215
5.16251	-34.7381	-0.00153274
5.16251	-34.7365	-0.00153334
5.16252	-34.7348	-0.00153393
5.16252	-34.7332	-0.00153453
5.16252	-34.7315	-0.00153512
5.16252	-34.7299	-0.00153572
5.16252	-34.7282	-0.00153632
5.16252	-34.7265	-0.00153692
5.16252	-34.7249	-0.00153751
5.16252	-34.7232	-0.00153811
5.16252	-34.7216	-0.00153871
5.16252	-34.7199	-0.00153931
5.16253	-34.7182	-0.00153991
5.16253	-34.7166	-0.00154051
5.16253	-34.7149	-0.00154111
5.16253	-34.7132	-0.00154171
5.16253	-34.7116	-0.00154232
5.16253	-34.7099	-0.00154292
5.16253	-34.7083	-0.00154352
5.16253	-34.7066	-0.00154412
5.16253	-34.7049	-0.00154473
5.16254	-34.7033	-0.00154533
5.16254	-34.7016	-0.00154593
5.16254	-34.6999	-0.00154654
5.16254	-34.6982	-0.00154714
5.16254	-34.6966	-0.00154775
5.16254	-34.6949	-0.00154836
5.16254	-34.6932	-0.00154896
5.16254	-34.6916	-0.00154957
5.16254	-34.6899	-0.00155018
5.16254	-34.6882	-0.00155078
5.16254	-34.6865	-0.00155139
5.16255	-34.6849	-0.001552
5.16255	-34.6832	-0.00155261
5.16255	-34.6815	-0.00155322
5.16255	-34.6799	-0.00155383
5.16255	-34.6782	-0.00155444
5.16255	-34.6765	-0.00155505
5.16255	-34.6748	-0.00155566
5.16255	-34.6731	-0.00155627
5.16255	-34.6715	-0.00155689
5.16256	-34.6698	-0.0015575
5.16256	-34.6681	-0.00155811
5.16256	-34.6664	-0.00155872
5.16256	-34.6648	-0.00155934
5.16256	-34.6631	-0.00155995
5.16256	-34.6614	-0.00156057
5.16256	-34.6597	-0.00156118
5.16256	-34.658	-0.0015618
5.16256	-34.6563	-0.00156241
5.16256	-34.6547	-0.00156303
5.16256	-34.653	-0.00156365
5.16257	-34.6513	-0.00156427
5.16257	-34.6496	-0.00156488
5.16257	-34.6479	-0.0015655
5.16257	-34.6462	-0.00156612
5.16257	-34.6445	-0.00156674
5.16257	-34.6429	-0.00156736
5.16257	-34.6412	-0.00156798
5.16257	-34.6395	-0.0015686
5.16257	-34.6378	-0.00156922
5.16258	-34.6361	-0.00156984
5.16258	-34.6344	-0.00157047
5.16258	-34.6327	-0.00157109
5.16258	-34.631	-0.00157171
5.16258	-34.6293	-0.00157233
5.16258	-34.6276	-0.00157296
5.16258	-34.626	-0.00157358
5.16258	-34.6243	-0.00157421
5.16258	-34.6226	-0.00157483
5.16258	-34.6209	-0.00157546
5.16258	-34.6192	-0.00157608
5.16259	-34.6175	-0.00157671
5.16259	-34.6158	-0.00157734
5.16259	-34.6141	-0.00157797
5.16259	-34.6124	-0.00157859
5.16259	-34.6107	-0.00157922
5.16259	-34.609	-0.00157985
5.16259	-34.6073	-0.00158048
5.16259	-34.6056	-0.00158111
5.16259	-34.6039	-0.00158174
5.16259	-34.6022	-0.00158237
5.1626	-34.6005	-0.001583
5.1626	-34.5988	-0.00158363
5.1626	-34.5971	-0.00158427
5.1626	-34.5954	-0.0015849
5.1626	-34.5937	-0.00158553
5.1626	-34.592	-0.00158617
5.1626	-34.5903	-0.0015868
5.1626	-34.5886	-0.00158743
5.1626	-34.5869	-0.00158807
5.16261	-34.5851	-0.0015887
5.16261	-34.5834	-0.00158934
5.16261	-34.5817	-0.00158998
5.16261	-34.58	-0.00159061
5.16261	-34.5783	-0.00159125
5.16261	-34.5766	-0.00159189
5.16261	-34.5749	-0.00159253
5.16261	-34.5732	-0.00159316
5.16261	-34.5715	-0.0015938
5.16261	-34.5698	-0.00159444
5.16261	-34.568	-0.00159508
5.16262	-34.5663	-0.00159572
5.16262	-34.5646	-0.00159637
5.16262	-34.5629	-0.00159701
5.16262	-34.5612	-0.00159765
5.16262	-34.5595	-0.00159829
5.16262	-34.5578	-0.00159893
5.16262	-34.556	-0.00159958
5.16262	-34.5543	-0.00160022
5.16262	-34.5526	-0.00160087
5.16263	-34.5509	-0.00160151
5.16263	-34.5492	-0.00160216
5.16263	-34.5474	-0.0016028
5.16263	-34.5457	-0.00160345
5.16263	-34.544	-0.00160409
5.16263	-34.5423	-0.00160474
5.16263	-34.5406	-0.00160539
5.16263	-34.5388	-0.00160604
5.16263	-34.5371	-0.00160669
5.16263	-34.5354	-0.00160734
5.16263	-34.5337	-0.00160798
5.16264	-34.5319	-0.00160864
5.16264	-34.5302	-0.00160929
5.16264	-34.5285	-0.00160994
5.16264	-34.5268	-0.00161059
5.16264	-34.525	-0.00161124
5.16264	-34.5233	-0.00161189
5.16264	-34.5216	-0.00161255
5.16264	-34.5198	-0.0016132
5.16264	-34.5181	-0.00161385
5.16264	-34.5164	-0.00161451
5.16265	-34.5146	-0.00161516
5.16265	-34.5129	-0.00161582
5.16265	-34.5112	-0.00161647
5.16265	-34.5094	-0.00161713
5.16265	-34.5077	-0.00161779
5.16265	-34.506	-0.00161844
5.16265	-34.5042	-0.0016191
5.16265	-34.5025	-0.00161976
5.16265	-34.5008	-0.00162042
5.16265	-34.499	-0.00162108
5.16266	-34.4973	-0.00162174
5.16266	-34.4956	-0.0016224
5.16266	-34.4938	-0.00162306
5.16266	-34.4921	-0.00162372
5.16266	-34.4903	-0.00162438
5.16266	-34.4886	-0.00162505
5.16266	-34.4869	-0.00162571
5.16266	-34.4851	-0.00162637
5.16266	-34.4834	-0.00162704
5.16266	-34.4816	-0.0016277
5.16267	-34.4799	-0.00162836
5.16267	-34.4781	-0.00162903
5.16267	-34.4764	-0.0016297
5.16267	-34.4747	-0.00163036
5.16267	-34.4729	-0.00163103
5.16267	-34.4712	-0.0016317
5.16267	-34.4694	-0.00163236
5.16267	-34.4677	-0.00163303
5.16267	-34.4659	-0.0016337
5.16268	-34.4642	-0.00163437
5.16268	-34.4624	-0.00163504
5.16268	-34.4607	-0.00163571
5.16268	-34.4589	-0.00163638
5.16268	-34.4572	-0.00163705
5.16268	-34.4554	-0.00163772
5.16268	-34.4537	-0.0016384
5.16268	-34.4519	-0.00163907
5.16268	-34.4502	-0.00163974
5.16268	-34.4484	-0.00164042
5.16268	-34.4467	-0.00164109
5.16269	-34.4449	-0.00164177
5.16269	-34.4431	-0.00164244
5.16269	-34.4414	-0.00164312
5.16269	-34.4396	-0.00164379
5.16269	-34.4379	-0.00164447
5.16269	-34.4361	-0.00164515
5.16269	-34.4344	-0.00164583
5.16269	-34.4326	-0.0016465
5.16269	-34.4308	-0.00164718
