Frequency (GHz)	DB(|S(1,1)|) : demo 1	DB(|S(2,1)|) : demo 1
5.646	-28.5875	-0.00617129
5.64601	-28.5721	-0.00619347
5.64602	-28.5566	-0.00621579
5.64603	-28.541	-0.00623825
5.64604	-28.5254	-0.00626086
5.64605	-28.5098	-0.00628361
5.64606	-28.4941	-0.0063065
5.64607	-28.4784	-0.00632954
5.64608	-28.4627	-0.00635272
5.64609	-28.4469	-0.00637606
5.6461	-28.431	-0.00639954
5.64611	-28.4151	-0.00642317
5.64612	-28.3992	-0.00644696
5.64613	-28.3832	-0.0064709
5.64614	-28.3672	-0.006495
5.64615	-28.3511	-0.00651925
5.64616	-28.335	-0.00654366
5.64617	-28.3189	-0.00656823
5.64618	-28.3027	-0.00659296
5.64619	-28.2864	-0.00661786
5.6462	-28.2701	-0.00664291
5.64621	-28.2538	-0.00666814
5.64622	-28.2374	-0.00669353
5.64623	-28.221	-0.00671908
5.64624	-28.2045	-0.00674481
5.64625	-28.188	-0.00677071
5.64626	-28.1714	-0.00679678
5.64627	-28.1548	-0.00682303
5.64628	-28.1381	-0.00684945
5.64629	-28.1214	-0.00687605
5.6463	-28.1047	-0.00690283
5.64631	-28.0879	-0.00692979
5.64632	-28.071	-0.00695694
5.64633	-28.0541	-0.00698426
5.64634	-28.0372	-0.00701178
5.64635	-28.0201	-0.00703948
5.64636	-28.0031	-0.00706737
5.64637	-27.986	-0.00709546
5.64638	-27.9688	-0.00712373
5.64639	-27.9516	-0.00715221
5.6464	-27.9344	-0.00718088
5.64641	-27.9171	-0.00720974
5.64642	-27.8997	-0.00723881
5.64643	-27.8823	-0.00726809
5.64644	-27.8649	-0.00729756
5.64645	-27.8474	-0.00732725
5.64646	-27.8298	-0.00735714
5.64647	-27.8122	-0.00738724
5.64648	-27.7945	-0.00741756
5.64649	-27.7768	-0.00744809
5.6465	-27.759	-0.00747884
5.64651	-27.7412	-0.0075098
5.64652	-27.7233	-0.00754099
5.64653	-27.7054	-0.00757241
5.64654	-27.6874	-0.00760404
5.64655	-27.6694	-0.00763591
5.64656	-27.6513	-0.007668
5.64657	-27.6331	-0.00770033
5.64658	-27.6149	-0.00773289
5.64659	-27.5966	-0.00776569
5.6466	-27.5783	-0.00779873
5.64661	-27.5599	-0.00783201
5.64662	-27.5415	-0.00786554
5.64663	-27.523	-0.00789931
5.64664	-27.5045	-0.00793333
5.64665	-27.4859	-0.00796761
5.64666	-27.4672	-0.00800214
5.64667	-27.4485	-0.00803692
5.64668	-27.4297	-0.00807197
5.64669	-27.4109	-0.00810727
5.6467	-27.392	-0.00814284
5.64671	-27.373	-0.00817868
5.64672	-27.354	-0.0082148
5.64673	-27.3349	-0.00825118
5.64674	-27.3158	-0.00828784
5.64675	-27.2966	-0.00832478
5.64676	-27.2774	-0.008362
5.64677	-27.258	-0.00839951
5.64678	-27.2387	-0.0084373
5.64679	-27.2192	-0.00847538
5.6468	-27.1997	-0.00851376
5.64681	-27.1801	-0.00855244
5.64682	-27.1605	-0.00859142
5.64683	-27.1408	-0.0086307
5.64684	-27.1211	-0.00867029
5.64685	-27.1012	-0.00871018
5.64686	-27.0814	-0.00875039
5.64687	-27.0614	-0.00879092
5.64688	-27.0414	-0.00883177
5.64689	-27.0213	-0.00887294
5.6469	-27.0012	-0.00891444
5.64691	-26.981	-0.00895627
5.64692	-26.9607	-0.00899844
5.64693	-26.9403	-0.00904094
5.64694	-26.9199	-0.00908379
5.64695	-26.8994	-0.00912698
5.64696	-26.8789	-0.00917052
5.64697	-26.8583	-0.00921442
5.64698	-26.8376	-0.00925867
5.64699	-26.8168	-0.00930328
5.647	-26.796	-0.00934826
5.64701	-26.7751	-0.00939368
5.64702	-26.7541	-0.00943947
5.64703	-26.7331	-0.00948564
5.64704	-26.712	-0.0095322
5.64705	-26.6908	-0.00957914
5.64706	-26.6695	-0.00962647
5.64707	-26.6482	-0.0096742
5.64708	-26.6268	-0.00972233
5.64709	-26.6053	-0.00977087
5.6471	-26.5838	-0.00981982
5.64711	-26.5622	-0.00986918
5.64712	-26.5405	-0.00991896
5.64713	-26.5187	-0.00996917
5.64714	-26.4968	-0.0100198
5.64715	-26.4749	-0.0100709
5.64716	-26.4529	-0.0101224
5.64717	-26.4308	-0.0101743
5.64718	-26.4087	-0.0102268
5.64719	-26.3864	-0.0102796
5.6472	-26.3641	-0.0103329
5.64721	-26.3417	-0.0103867
5.64722	-26.3192	-0.010441
5.64723	-26.2967	-0.0104957
5.64724	-26.274	-0.010551
5.64725	-26.2513	-0.0106067
5.64726	-26.2285	-0.0106629
5.64727	-26.2056	-0.0107196
5.64728	-26.1827	-0.0107768
5.64729	-26.1596	-0.0108346
5.6473	-26.1365	-0.0108928
5.64731	-26.1133	-0.0109516
5.64732	-26.0899	-0.0110109
5.64733	-26.0666	-0.0110708
5.64734	-26.0431	-0.0111312
5.64735	-26.0195	-0.0111921
5.64736	-25.9959	-0.0112537
5.64737	-25.9721	-0.0113158
5.64738	-25.9483	-0.0113784
5.64739	-25.9244	-0.0114417
5.6474	-25.9004	-0.0115055
5.64741	-25.8763	-0.0115699
5.64742	-25.8521	-0.011635
5.64743	-25.8278	-0.0117006
5.64744	-25.8034	-0.0117669
5.64745	-25.779	-0.0118338
5.64746	-25.7544	-0.0119013
5.64747	-25.7298	-0.0119695
5.64748	-25.705	-0.0120383
5.64749	-25.6802	-0.0121078
5.6475	-25.6552	-0.012178
5.64751	-25.6302	-0.0122488
5.64752	-25.6051	-0.0123204
5.64753	-25.5798	-0.0123926
5.64754	-25.5545	-0.0124655
5.64755	-25.5291	-0.0125392
5.64756	-25.5035	-0.0126136
5.64757	-25.4779	-0.0126887
5.64758	-25.4522	-0.0127646
5.64759	-25.4264	-0.0128412
5.6476	-25.4004	-0.0129186
5.64761	-25.3744	-0.0129967
5.64762	-25.3482	-0.0130757
5.64763	-25.322	-0.0131555
5.64764	-25.2956	-0.013236
5.64765	-25.2692	-0.0133174
5.64766	-25.2426	-0.0133996
5.64767	-25.2159	-0.0134827
5.64768	-25.1891	-0.0135666
5.64769	-25.1622	-0.0136514
5.6477	-25.1352	-0.0137371
5.64771	-25.1081	-0.0138236
5.64772	-25.0809	-0.0139111
5.64773	-25.0535	-0.0139995
5.64774	-25.0261	-0.0140888
5.64775	-24.9985	-0.014179
5.64776	-24.9708	-0.0142703
5.64777	-24.943	-0.0143625
5.64778	-24.9151	-0.0144556
5.64779	-24.887	-0.0145498
5.6478	-24.8589	-0.014645
5.64781	-24.8306	-0.0147413
5.64782	-24.8022	-0.0148385
5.64783	-24.7737	-0.0149369
5.64784	-24.745	-0.0150363
5.64785	-24.7163	-0.0151368
5.64786	-24.6874	-0.0152384
5.64787	-24.6584	-0.0153412
5.64788	-24.6292	-0.0154451
5.64789	-24.5999	-0.0155501
5.6479	-24.5705	-0.0156564
5.64791	-24.541	-0.0157638
5.64792	-24.5113	-0.0158725
5.64793	-24.4815	-0.0159824
5.64794	-24.4516	-0.0160935
5.64795	-24.4216	-0.0162059
5.64796	-24.3914	-0.0163196
5.64797	-24.361	-0.0164347
5.64798	-24.3306	-0.016551
5.64799	-24.2999	-0.0166687
5.648	-24.2692	-0.0167878
5.64801	-24.2383	-0.0169085
5.64802	-24.2073	-0.0170305
5.64803	-24.1761	-0.017154
5.64804	-24.1448	-0.017279
5.64805	-24.1133	-0.0174055
5.64806	-24.0817	-0.0175335
5.64807	-24.05	-0.017663
5.64808	-24.0181	-0.0177941
5.64809	-23.986	-0.0179268
5.6481	-23.9538	-0.0180611
5.64811	-23.9215	-0.0181971
5.64812	-23.889	-0.0183347
5.64813	-23.8563	-0.0184741
5.64814	-23.8235	-0.0186152
5.64815	-23.7905	-0.018758
5.64816	-23.7574	-0.0189027
5.64817	-23.7241	-0.0190491
5.64818	-23.6906	-0.0191975
5.64819	-23.657	-0.0193477
5.6482	-23.6232	-0.0194998
5.64821	-23.5892	-0.0196539
5.64822	-23.5551	-0.01981
5.64823	-23.5208	-0.0199681
5.64824	-23.4863	-0.0201282
5.64825	-23.4517	-0.0202905
5.64826	-23.4169	-0.0204549
5.64827	-23.3819	-0.0206214
5.64828	-23.3467	-0.0207902
5.64829	-23.3114	-0.0209612
5.6483	-23.2758	-0.0211345
5.64831	-23.2401	-0.0213102
5.64832	-23.2042	-0.0214882
5.64833	-23.1681	-0.0216686
5.64834	-23.1319	-0.0218516
5.64835	-23.0954	-0.022037
5.64836	-23.0588	-0.0222249
5.64837	-23.0219	-0.0224155
5.64838	-22.9849	-0.0226088
5.64839	-22.9476	-0.0228047
5.6484	-22.9102	-0.0230034
5.64841	-22.8726	-0.0232049
5.64842	-22.8347	-0.0234093
5.64843	-22.7967	-0.0236166
5.64844	-22.7584	-0.0238269
5.64845	-22.72	-0.0240402
5.64846	-22.6813	-0.0242566
5.64847	-22.6424	-0.0244761
5.64848	-22.6033	-0.0246989
5.64849	-22.564	-0.024925
5.6485	-22.5245	-0.0251544
5.64851	-22.4847	-0.0253872
5.64852	-22.4448	-0.0256235
5.64853	-22.4046	-0.0258634
5.64854	-22.3641	-0.0261069
5.64855	-22.3235	-0.0263541
5.64856	-22.2826	-0.0266051
5.64857	-22.2414	-0.0268599
5.64858	-22.2001	-0.0271187
5.64859	-22.1585	-0.0273815
5.6486	-22.1166	-0.0276484
5.64861	-22.0745	-0.0279195
5.64862	-22.0321	-0.0281949
5.64863	-21.9895	-0.0284747
5.64864	-21.9467	-0.028759
5.64865	-21.9036	-0.0290478
5.64866	-21.8602	-0.0293413
5.64867	-21.8166	-0.0296395
5.64868	-21.7727	-0.0299427
5.64869	-21.7285	-0.0302508
5.6487	-21.6841	-0.030564
5.64871	-21.6393	-0.0308825
5.64872	-21.5943	-0.0312063
5.64873	-21.5491	-0.0315355
5.64874	-21.5035	-0.0318703
5.64875	-21.4577	-0.0322108
5.64876	-21.4115	-0.0325572
5.64877	-21.3651	-0.0329095
5.64878	-21.3184	-0.0332679
5.64879	-21.2713	-0.0336326
5.6488	-21.224	-0.0340037
5.64881	-21.1763	-0.0343814
5.64882	-21.1284	-0.0347658
5.64883	-21.0801	-0.0351571
5.64884	-21.0315	-0.0355554
5.64885	-20.9826	-0.0359609
5.64886	-20.9334	-0.0363739
5.64887	-20.8838	-0.0367944
5.64888	-20.8339	-0.0372227
5.64889	-20.7836	-0.037659
5.6489	-20.733	-0.0381034
5.64891	-20.6821	-0.0385562
5.64892	-20.6308	-0.0390176
5.64893	-20.5791	-0.0394878
5.64894	-20.5271	-0.0399671
5.64895	-20.4747	-0.0404556
5.64896	-20.422	-0.0409537
5.64897	-20.3688	-0.0414615
5.64898	-20.3153	-0.0419794
5.64899	-20.2614	-0.0425076
5.649	-20.2071	-0.0430463
5.64901	-20.1524	-0.0435963
5.64902	-20.0973	-0.0441575
5.64903	-20.0418	-0.0447301
5.64904	-19.9859	-0.0453146
5.64905	-19.9296	-0.0459112
5.64906	-19.8728	-0.0465202
5.64907	-19.8157	-0.0471421
5.64908	-19.758	-0.0477772
5.64909	-19.7	-0.0484259
5.6491	-19.6414	-0.0490886
5.64911	-19.5825	-0.0497656
5.64912	-19.523	-0.0504575
5.64913	-19.4631	-0.0511645
5.64914	-19.4027	-0.0518873
5.64915	-19.3418	-0.0526263
5.64916	-19.2805	-0.0533819
5.64917	-19.2186	-0.0541547
5.64918	-19.1562	-0.0549452
5.64919	-19.0934	-0.055754
5.6492	-19.03	-0.0565816
5.64921	-18.966	-0.0574286
5.64922	-18.9015	-0.0582957
5.64923	-18.8365	-0.0591834
5.64924	-18.7709	-0.0600925
5.64925	-18.7048	-0.0610237
5.64926	-18.6381	-0.0619776
5.64927	-18.5708	-0.0629551
5.64928	-18.5029	-0.0639569
5.64929	-18.4344	-0.0649838
5.6493	-18.3653	-0.0660367
5.64931	-18.2956	-0.0671165
5.64932	-18.2252	-0.0682241
5.64933	-18.1542	-0.0693605
5.64934	-18.0825	-0.0705267
5.64935	-18.0102	-0.0717238
5.64936	-17.9372	-0.0729529
5.64937	-17.8635	-0.0742151
5.64938	-17.7891	-0.0755116
5.64939	-17.714	-0.0768437
5.6494	-17.6381	-0.0782128
5.64941	-17.5616	-0.0796201
5.64942	-17.4842	-0.0810673
5.64943	-17.4061	-0.0825557
5.64944	-17.3272	-0.0840871
5.64945	-17.2476	-0.085663
5.64946	-17.1671	-0.0872852
5.64947	-17.0857	-0.0889556
5.64948	-17.0036	-0.0906762
5.64949	-16.9205	-0.0924488
5.6495	-16.8366	-0.0942758
5.64951	-16.7518	-0.0961593
5.64952	-16.6661	-0.0981017
5.64953	-16.5794	-0.100105
5.64954	-16.4918	-0.102173
5.64955	-16.4033	-0.104308
5.64956	-16.3137	-0.106512
5.64957	-16.2231	-0.10879
5.64958	-16.1315	-0.111143
5.64959	-16.0389	-0.113576
5.6496	-15.9452	-0.116092
5.64961	-15.8503	-0.118695
5.64962	-15.7543	-0.121389
5.64963	-15.6572	-0.124178
5.64964	-15.5589	-0.127067
5.64965	-15.4595	-0.130062
5.64966	-15.3587	-0.133166
5.64967	-15.2567	-0.136385
5.64968	-15.1535	-0.139726
5.64969	-15.0489	-0.143194
5.6497	-14.9429	-0.146797
5.64971	-14.8356	-0.15054
5.64972	-14.7269	-0.154432
5.64973	-14.6167	-0.15848
5.64974	-14.505	-0.162693
5.64975	-14.3917	-0.16708
5.64976	-14.277	-0.171651
5.64977	-14.1606	-0.176416
5.64978	-14.0425	-0.181387
5.64979	-13.9228	-0.186575
5.6498	-13.8013	-0.191993
5.64981	-13.6781	-0.197655
5.64982	-13.553	-0.203575
5.64983	-13.426	-0.209771
5.64984	-13.2971	-0.216259
5.64985	-13.1662	-0.223057
5.64986	-13.0333	-0.230187
5.64987	-12.8983	-0.237669
5.64988	-12.761	-0.245527
5.64989	-12.6216	-0.253787
5.6499	-12.4798	-0.262476
5.64991	-12.3357	-0.271625
5.64992	-12.1892	-0.281267
5.64993	-12.0401	-0.291437
5.64994	-11.8885	-0.302174
5.64995	-11.7341	-0.313522
5.64996	-11.577	-0.325526
5.64997	-11.4171	-0.33824
5.64998	-11.2542	-0.351717
5.64999	-11.0883	-0.366022
5.65	-10.9192	-0.381223
5.65001	-10.7469	-0.397396
5.65002	-10.5713	-0.414624
5.65003	-10.3922	-0.432999
5.65004	-10.2096	-0.452625
5.65005	-10.0232	-0.473615
5.65006	-9.83302	-0.496099
5.65007	-9.63887	-0.520218
5.65008	-9.44064	-0.546133
5.65009	-9.23818	-0.574024
5.6501	-9.03134	-0.604093
5.65011	-8.81998	-0.636569
5.65012	-8.60395	-0.67171
5.65013	-8.3831	-0.709811
5.65014	-8.15726	-0.751204
5.65015	-7.9263	-0.796271
5.65016	-7.69005	-0.845449
5.65017	-7.44837	-0.89924
5.65018	-7.20112	-0.958221
5.65019	-6.94815	-1.02306
5.6502	-6.68937	-1.09453
5.65021	-6.42465	-1.17354
5.65022	-6.15395	-1.26115
5.65023	-5.87722	-1.35859
5.65024	-5.59447	-1.46732
5.65025	-5.30579	-1.58908
5.65026	-5.01131	-1.72592
5.65027	-4.7113	-1.88031
5.65028	-4.40613	-2.05519
5.65029	-4.09633	-2.25414
5.6503	-3.78263	-2.48148
5.65031	-3.46597	-2.74251
5.65032	-3.14759	-3.04374
5.65033	-2.82909	-3.39324
5.65034	-2.51242	-3.80113
5.65035	-2.20003	-4.28019
5.65036	-1.89485	-4.8469
5.65037	-1.60036	-5.52279
5.65038	-1.32059	-6.33684
5.65039	-1.06008	-7.32934
5.6504	-0.823785	-8.55922
5.65041	-0.61689	-10.1186
5.65042	-0.44455	-12.1667
5.65043	-0.311562	-15.0214
5.65044	-0.22199	-19.4928
5.65045	-0.178799	-28.8266
5.65046	-0.18356	-26.2742
5.65047	-0.236285	-18.4312
5.65048	-0.335423	-14.371
5.65049	-0.47803	-11.6986
5.6505	-0.660054	-9.75269
5.65051	-0.876706	-8.25849
5.65052	-1.12283	-7.07382
5.65053	-1.39325	-6.11449
5.65054	-1.68299	-5.32584
5.65055	-1.98752	-4.67001
5.65056	-2.3028	-4.11958
5.65057	-2.62533	-3.65399
5.65058	-2.95217	-3.25745
5.65059	-3.28089	-2.91764
5.6506	-3.6095	-2.62479
5.65061	-3.93642	-2.37109
5.65062	-4.2604	-2.1502
5.65063	-4.58048	-1.95699
5.65064	-4.89595	-1.78723
5.65065	-5.20626	-1.63747
5.65066	-5.51104	-1.50481
5.65067	-5.81003	-1.38685
5.65068	-6.10309	-1.28159
5.65069	-6.39013	-1.18734
5.6507	-6.67115	-1.10267
5.65071	-6.94617	-1.02637
5.65072	-7.21527	-0.95741
5.65073	-7.47854	-0.894904
5.65074	-7.7361	-0.838096
5.65075	-7.98808	-0.786335
5.65076	-8.23463	-0.739056
5.65077	-8.4759	-0.695771
5.65078	-8.71203	-0.656052
5.65079	-8.94318	-0.619529
5.6508	-9.1695	-0.585875
5.65081	-9.39115	-0.554804
5.65082	-9.60828	-0.526065
5.65083	-9.82104	-0.499434
5.65084	-10.0296	-0.474715
5.65085	-10.234	-0.451732
5.65086	-10.4345	-0.43033
5.65087	-10.6311	-0.410369
5.65088	-10.824	-0.391726
5.65089	-11.0134	-0.374288
5.6509	-11.1993	-0.357957
5.65091	-11.3819	-0.342641
5.65092	-11.5612	-0.32826
5.65093	-11.7373	-0.31474
5.65094	-11.9105	-0.302015
5.65095	-12.0807	-0.290025
5.65096	-12.248	-0.278716
5.65097	-12.4126	-0.268036
5.65098	-12.5745	-0.257942
5.65099	-12.7338	-0.248391
5.651	-12.8907	-0.239347
5.65101	-13.045	-0.230777
5.65102	-13.197	-0.222646
5.65103	-13.3467	-0.214926
5.65104	-13.4941	-0.207589
5.65105	-13.6394	-0.200611
5.65106	-13.7826	-0.193968
5.65107	-13.9237	-0.187641
5.65108	-14.0629	-0.18161
5.65109	-14.2001	-0.175856
5.6511	-14.3354	-0.170364
5.65111	-14.4689	-0.165117
5.65112	-14.6006	-0.160102
5.65113	-14.7306	-0.155305
5.65114	-14.8588	-0.150714
5.65115	-14.9855	-0.146317
5.65116	-15.1105	-0.142105
5.65117	-15.2339	-0.138066
5.65118	-15.3559	-0.134191
5.65119	-15.4763	-0.130473
5.6512	-15.5953	-0.126902
5.65121	-15.7129	-0.123471
5.65122	-15.8291	-0.120172
5.65123	-15.9439	-0.117
5.65124	-16.0574	-0.113948
5.65125	-16.1697	-0.11101
5.65126	-16.2806	-0.108181
5.65127	-16.3904	-0.105454
5.65128	-16.4989	-0.102826
5.65129	-16.6063	-0.100292
5.6513	-16.7125	-0.0978468
5.65131	-16.8176	-0.0954871
5.65132	-16.9216	-0.0932088
5.65133	-17.0245	-0.0910082
5.65134	-17.1263	-0.0888819
5.65135	-17.2271	-0.0868266
5.65136	-17.327	-0.0848392
5.65137	-17.4258	-0.0829169
5.65138	-17.5236	-0.0810568
5.65139	-17.6205	-0.0792562
5.6514	-17.7165	-0.0775128
5.65141	-17.8116	-0.0758242
5.65142	-17.9057	-0.074188
5.65143	-17.999	-0.0726022
5.65144	-18.0915	-0.0710648
5.65145	-18.183	-0.0695739
5.65146	-18.2738	-0.0681275
5.65147	-18.3637	-0.066724
5.65148	-18.4529	-0.0653617
5.65149	-18.5413	-0.0640391
5.6515	-18.6289	-0.0627546
5.65151	-18.7157	-0.0615068
5.65152	-18.8018	-0.0602943
5.65153	-18.8872	-0.0591158
5.65154	-18.9718	-0.0579701
5.65155	-19.0558	-0.056856
5.65156	-19.1391	-0.0557724
5.65157	-19.2217	-0.0547181
5.65158	-19.3036	-0.0536922
5.65159	-19.3849	-0.0526936
5.6516	-19.4655	-0.0517214
5.65161	-19.5455	-0.0507746
5.65162	-19.6249	-0.0498525
5.65163	-19.7037	-0.0489541
5.65164	-19.7818	-0.0480788
5.65165	-19.8594	-0.0472256
5.65166	-19.9364	-0.0463939
5.65167	-20.0128	-0.0455829
5.65168	-20.0887	-0.0447921
5.65169	-20.164	-0.0440207
5.6517	-20.2387	-0.0432681
5.65171	-20.3129	-0.0425338
5.65172	-20.3866	-0.041817
5.65173	-20.4598	-0.0411174
5.65174	-20.5324	-0.0404343
5.65175	-20.6046	-0.0397673
5.65176	-20.6762	-0.0391159
5.65177	-20.7474	-0.0384795
5.65178	-20.818	-0.0378578
5.65179	-20.8882	-0.0372502
5.6518	-20.958	-0.0366564
5.65181	-21.0272	-0.036076
5.65182	-21.096	-0.0355085
5.65183	-21.1644	-0.0349537
5.65184	-21.2323	-0.034411
5.65185	-21.2998	-0.0338803
5.65186	-21.3669	-0.033361
5.65187	-21.4335	-0.032853
5.65188	-21.4997	-0.0323559
5.65189	-21.5655	-0.0318694
5.6519	-21.6309	-0.0313932
5.65191	-21.6959	-0.0309269
5.65192	-21.7604	-0.0304705
5.65193	-21.8246	-0.0300234
5.65194	-21.8885	-0.0295856
5.65195	-21.9519	-0.0291568
5.65196	-22.0149	-0.0287367
5.65197	-22.0776	-0.0283251
5.65198	-22.1399	-0.0279218
5.65199	-22.2019	-0.0275265
5.652	-22.2635	-0.0271391
5.65201	-22.3247	-0.0267598
5.65202	-22.3856	-0.0263878
5.65203	-22.4462	-0.0260231
5.65204	-22.5064	-0.0256655
5.65205	-22.5663	-0.0253148
5.65206	-22.6258	-0.0249708
5.65207	-22.685	-0.0246333
5.65208	-22.7439	-0.0243022
5.65209	-22.8025	-0.0239773
5.6521	-22.8608	-0.0236585
5.65211	-22.9187	-0.0233457
5.65212	-22.9764	-0.0230386
5.65213	-23.0337	-0.0227372
5.65214	-23.0908	-0.0224412
5.65215	-23.1475	-0.0221507
5.65216	-23.204	-0.0218654
5.65217	-23.2601	-0.0215852
5.65218	-23.316	-0.02131
5.65219	-23.3716	-0.0210397
5.6522	-23.4269	-0.0207742
5.65221	-23.482	-0.0205134
5.65222	-23.5367	-0.0202571
5.65223	-23.5912	-0.0200053
5.65224	-23.6454	-0.0197578
5.65225	-23.6994	-0.0195146
5.65226	-23.7531	-0.0192755
5.65227	-23.8066	-0.0190406
5.65228	-23.8597	-0.0188096
5.65229	-23.9127	-0.0185825
5.6523	-23.9654	-0.0183592
5.65231	-24.0178	-0.0181396
5.65232	-24.07	-0.0179237
5.65233	-24.122	-0.0177113
5.65234	-24.1737	-0.0175024
5.65235	-24.2251	-0.0172969
5.65236	-24.2764	-0.0170948
5.65237	-24.3274	-0.016896
5.65238	-24.3782	-0.0167003
5.65239	-24.4287	-0.0165078
5.6524	-24.4791	-0.0163184
5.65241	-24.5292	-0.0161319
5.65242	-24.579	-0.0159484
5.65243	-24.6287	-0.0157678
5.65244	-24.6782	-0.01559
5.65245	-24.7274	-0.015415
5.65246	-24.7764	-0.0152427
5.65247	-24.8252	-0.015073
5.65248	-24.8739	-0.014906
5.65249	-24.9223	-0.0147415
5.6525	-24.9705	-0.0145795
5.65251	-25.0185	-0.0144199
5.65252	-25.0663	-0.0142628
5.65253	-25.1139	-0.014108
5.65254	-25.1613	-0.0139555
5.65255	-25.2085	-0.0138053
5.65256	-25.2555	-0.0136573
5.65257	-25.3024	-0.0135115
5.65258	-25.349	-0.0133679
5.65259	-25.3955	-0.0132263
5.6526	-25.4417	-0.0130868
5.65261	-25.4878	-0.0129493
5.65262	-25.5337	-0.0128138
5.65263	-25.5795	-0.0126802
5.65264	-25.625	-0.0125485
5.65265	-25.6704	-0.0124188
5.65266	-25.7156	-0.0122908
5.65267	-25.7607	-0.0121647
5.65268	-25.8055	-0.0120403
5.65269	-25.8502	-0.0119177
5.6527	-25.8947	-0.0117967
5.65271	-25.9391	-0.0116775
5.65272	-25.9833	-0.0115599
5.65273	-26.0273	-0.0114439
5.65274	-26.0712	-0.0113295
5.65275	-26.1149	-0.0112166
5.65276	-26.1584	-0.0111053
5.65277	-26.2018	-0.0109955
5.65278	-26.2451	-0.0108872
5.65279	-26.2881	-0.0107803
5.6528	-26.3311	-0.0106749
5.65281	-26.3738	-0.0105709
5.65282	-26.4165	-0.0104682
5.65283	-26.4589	-0.0103669
5.65284	-26.5013	-0.0102669
5.65285	-26.5434	-0.0101683
5.65286	-26.5855	-0.0100709
5.65287	-26.6274	-0.00997481
5.65288	-26.6691	-0.00987995
5.65289	-26.7107	-0.00978631
5.6529	-26.7522	-0.00969388
5.65291	-26.7935	-0.00960263
5.65292	-26.8347	-0.00951254
5.65293	-26.8757	-0.0094236
5.65294	-26.9166	-0.00933579
5.65295	-26.9574	-0.00924908
5.65296	-26.998	-0.00916346
5.65297	-27.0385	-0.00907891
5.65298	-27.0789	-0.00899542
5.65299	-27.1191	-0.00891296
5.653	-27.1593	-0.00883153
5.65301	-27.1992	-0.00875124
5.65302	-27.2391	-0.00867194
5.65303	-27.2788	-0.00859361
5.65304	-27.3184	-0.00851624
5.65305	-27.3579	-0.0084398
5.65306	-27.3972	-0.00836429
5.65307	-27.4365	-0.0082897
5.65308	-27.4756	-0.008216
5.65309	-27.5146	-0.00814318
5.6531	-27.5534	-0.00807123
5.65311	-27.5922	-0.00800013
5.65312	-27.6308	-0.00792988
5.65313	-27.6693	-0.00786046
5.65314	-27.7077	-0.00779185
5.65315	-27.746	-0.00772405
5.65316	-27.7841	-0.00765705
5.65317	-27.8222	-0.00759082
5.65318	-27.8601	-0.00752536
5.65319	-27.898	-0.00746066
5.6532	-27.9357	-0.00739671
5.65321	-27.9733	-0.00733349
5.65322	-28.0108	-0.00727099
