Frequency (GHz)	DB(|S(1,1)|) : demo 1	DB(|S(2,1)|) : demo 1
6.248	-24.4593	-0.0160899
6.248	-24.4582	-0.0160941
6.248	-24.457	-0.0160984
6.248	-24.4559	-0.0161027
6.248	-24.4548	-0.0161069
6.248	-24.4536	-0.0161112
6.248	-24.4525	-0.0161155
6.248	-24.4513	-0.0161197
6.248	-24.4502	-0.016124
6.248	-24.449	-0.0161283
6.248	-24.4479	-0.0161325
6.248	-24.4468	-0.0161368
6.248	-24.4456	-0.0161411
6.24801	-24.4445	-0.0161454
6.24801	-24.4433	-0.0161497
6.24801	-24.4422	-0.016154
6.24801	-24.441	-0.0161582
6.24801	-24.4399	-0.0161625
6.24801	-24.4387	-0.0161668
6.24801	-24.4376	-0.0161711
6.24801	-24.4365	-0.0161754
6.24801	-24.4353	-0.0161797
6.24801	-24.4342	-0.016184
6.24801	-24.433	-0.0161883
6.24801	-24.4319	-0.0161926
6.24801	-24.4307	-0.0161969
6.24801	-24.4296	-0.0162012
6.24801	-24.4284	-0.0162055
6.24801	-24.4273	-0.0162098
6.24801	-24.4261	-0.0162141
6.24801	-24.425	-0.0162185
6.24801	-24.4239	-0.0162228
6.24801	-24.4227	-0.0162271
6.24801	-24.4216	-0.0162314
6.24801	-24.4204	-0.0162357
6.24801	-24.4193	-0.0162401
6.24801	-24.4181	-0.0162444
6.24801	-24.417	-0.0162487
6.24802	-24.4158	-0.016253
6.24802	-24.4147	-0.0162574
6.24802	-24.4135	-0.0162617
6.24802	-24.4124	-0.016266
6.24802	-24.4112	-0.0162704
6.24802	-24.4101	-0.0162747
6.24802	-24.4089	-0.016279
6.24802	-24.4078	-0.0162834
6.24802	-24.4066	-0.0162877
6.24802	-24.4055	-0.0162921
6.24802	-24.4043	-0.0162964
6.24802	-24.4032	-0.0163008
6.24802	-24.402	-0.0163051
6.24802	-24.4009	-0.0163095
6.24802	-24.3997	-0.0163138
6.24802	-24.3986	-0.0163182
6.24802	-24.3974	-0.0163225
6.24802	-24.3963	-0.0163269
6.24802	-24.3951	-0.0163313
6.24802	-24.394	-0.0163356
6.24802	-24.3928	-0.01634
6.24802	-24.3917	-0.0163444
6.24802	-24.3905	-0.0163487
6.24802	-24.3893	-0.0163531
6.24802	-24.3882	-0.0163575
6.24803	-24.387	-0.0163619
6.24803	-24.3859	-0.0163662
6.24803	-24.3847	-0.0163706
6.24803	-24.3836	-0.016375
6.24803	-24.3824	-0.0163794
6.24803	-24.3813	-0.0163838
6.24803	-24.3801	-0.0163882
6.24803	-24.379	-0.0163926
6.24803	-24.3778	-0.0163969
6.24803	-24.3766	-0.0164013
6.24803	-24.3755	-0.0164057
6.24803	-24.3743	-0.0164101
6.24803	-24.3732	-0.0164145
6.24803	-24.372	-0.0164189
6.24803	-24.3709	-0.0164233
6.24803	-24.3697	-0.0164277
6.24803	-24.3686	-0.0164321
6.24803	-24.3674	-0.0164366
6.24803	-24.3662	-0.016441
6.24803	-24.3651	-0.0164454
6.24803	-24.3639	-0.0164498
6.24803	-24.3628	-0.0164542
6.24803	-24.3616	-0.0164586
6.24803	-24.3605	-0.0164631
6.24803	-24.3593	-0.0164675
6.24804	-24.3581	-0.0164719
6.24804	-24.357	-0.0164763
6.24804	-24.3558	-0.0164808
6.24804	-24.3547	-0.0164852
6.24804	-24.3535	-0.0164896
6.24804	-24.3523	-0.0164941
6.24804	-24.3512	-0.0164985
6.24804	-24.35	-0.0165029
6.24804	-24.3489	-0.0165074
6.24804	-24.3477	-0.0165118
6.24804	-24.3465	-0.0165163
6.24804	-24.3454	-0.0165207
6.24804	-24.3442	-0.0165252
6.24804	-24.3431	-0.0165296
6.24804	-24.3419	-0.0165341
6.24804	-24.3407	-0.0165385
6.24804	-24.3396	-0.016543
6.24804	-24.3384	-0.0165474
6.24804	-24.3372	-0.0165519
6.24804	-24.3361	-0.0165563
6.24804	-24.3349	-0.0165608
6.24804	-24.3338	-0.0165653
6.24804	-24.3326	-0.0165697
6.24804	-24.3314	-0.0165742
6.24804	-24.3303	-0.0165787
6.24805	-24.3291	-0.0165832
6.24805	-24.3279	-0.0165876
6.24805	-24.3268	-0.0165921
6.24805	-24.3256	-0.0165966
6.24805	-24.3245	-0.0166011
6.24805	-24.3233	-0.0166056
6.24805	-24.3221	-0.0166101
6.24805	-24.321	-0.0166145
6.24805	-24.3198	-0.016619
6.24805	-24.3186	-0.0166235
6.24805	-24.3175	-0.016628
6.24805	-24.3163	-0.0166325
6.24805	-24.3151	-0.016637
6.24805	-24.314	-0.0166415
6.24805	-24.3128	-0.016646
6.24805	-24.3116	-0.0166505
6.24805	-24.3105	-0.016655
6.24805	-24.3093	-0.0166595
6.24805	-24.3081	-0.016664
6.24805	-24.307	-0.0166686
6.24805	-24.3058	-0.0166731
6.24805	-24.3046	-0.0166776
6.24805	-24.3035	-0.0166821
6.24805	-24.3023	-0.0166866
6.24805	-24.3011	-0.0166911
6.24806	-24.3	-0.0166957
6.24806	-24.2988	-0.0167002
6.24806	-24.2976	-0.0167047
6.24806	-24.2964	-0.0167093
6.24806	-24.2953	-0.0167138
6.24806	-24.2941	-0.0167183
6.24806	-24.2929	-0.0167229
6.24806	-24.2918	-0.0167274
6.24806	-24.2906	-0.0167319
6.24806	-24.2894	-0.0167365
6.24806	-24.2883	-0.016741
6.24806	-24.2871	-0.0167456
6.24806	-24.2859	-0.0167501
6.24806	-24.2847	-0.0167547
6.24806	-24.2836	-0.0167592
6.24806	-24.2824	-0.0167638
6.24806	-24.2812	-0.0167683
6.24806	-24.2801	-0.0167729
6.24806	-24.2789	-0.0167774
6.24806	-24.2777	-0.016782
6.24806	-24.2765	-0.0167866
6.24806	-24.2754	-0.0167911
6.24806	-24.2742	-0.0167957
6.24806	-24.273	-0.0168003
6.24806	-24.2718	-0.0168049
6.24807	-24.2707	-0.0168094
6.24807	-24.2695	-0.016814
6.24807	-24.2683	-0.0168186
6.24807	-24.2671	-0.0168232
6.24807	-24.266	-0.0168278
6.24807	-24.2648	-0.0168323
6.24807	-24.2636	-0.0168369
6.24807	-24.2624	-0.0168415
6.24807	-24.2613	-0.0168461
6.24807	-24.2601	-0.0168507
6.24807	-24.2589	-0.0168553
6.24807	-24.2577	-0.0168599
6.24807	-24.2566	-0.0168645
6.24807	-24.2554	-0.0168691
6.24807	-24.2542	-0.0168737
6.24807	-24.253	-0.0168783
6.24807	-24.2519	-0.0168829
6.24807	-24.2507	-0.0168875
6.24807	-24.2495	-0.0168921
6.24807	-24.2483	-0.0168967
6.24807	-24.2472	-0.0169014
6.24807	-24.246	-0.016906
6.24807	-24.2448	-0.0169106
6.24807	-24.2436	-0.0169152
6.24807	-24.2424	-0.0169198
6.24808	-24.2413	-0.0169245
6.24808	-24.2401	-0.0169291
6.24808	-24.2389	-0.0169337
6.24808	-24.2377	-0.0169384
6.24808	-24.2365	-0.016943
6.24808	-24.2354	-0.0169476
6.24808	-24.2342	-0.0169523
6.24808	-24.233	-0.0169569
6.24808	-24.2318	-0.0169616
6.24808	-24.2306	-0.0169662
6.24808	-24.2295	-0.0169709
6.24808	-24.2283	-0.0169755
6.24808	-24.2271	-0.0169802
6.24808	-24.2259	-0.0169848
6.24808	-24.2247	-0.0169895
6.24808	-24.2235	-0.0169941
6.24808	-24.2224	-0.0169988
6.24808	-24.2212	-0.0170034
6.24808	-24.22	-0.0170081
6.24808	-24.2188	-0.0170128
6.24808	-24.2176	-0.0170174
6.24808	-24.2165	-0.0170221
6.24808	-24.2153	-0.0170268
6.24808	-24.2141	-0.0170315
6.24808	-24.2129	-0.0170361
6.24809	-24.2117	-0.0170408
6.24809	-24.2105	-0.0170455
6.24809	-24.2093	-0.0170502
6.24809	-24.2082	-0.0170549
6.24809	-24.207	-0.0170596
6.24809	-24.2058	-0.0170642
6.24809	-24.2046	-0.0170689
6.24809	-24.2034	-0.0170736
6.24809	-24.2022	-0.0170783
6.24809	-24.201	-0.017083
6.24809	-24.1999	-0.0170877
6.24809	-24.1987	-0.0170924
6.24809	-24.1975	-0.0170971
6.24809	-24.1963	-0.0171018
6.24809	-24.1951	-0.0171065
6.24809	-24.1939	-0.0171113
6.24809	-24.1927	-0.017116
6.24809	-24.1916	-0.0171207
6.24809	-24.1904	-0.0171254
6.24809	-24.1892	-0.0171301
6.24809	-24.188	-0.0171348
6.24809	-24.1868	-0.0171396
6.24809	-24.1856	-0.0171443
6.24809	-24.1844	-0.017149
6.24809	-24.1832	-0.0171537
6.2481	-24.182	-0.0171585
6.2481	-24.1809	-0.0171632
6.2481	-24.1797	-0.0171679
6.2481	-24.1785	-0.0171727
6.2481	-24.1773	-0.0171774
6.2481	-24.1761	-0.0171822
6.2481	-24.1749	-0.0171869
6.2481	-24.1737	-0.0171917
6.2481	-24.1725	-0.0171964
6.2481	-24.1713	-0.0172012
6.2481	-24.1701	-0.0172059
6.2481	-24.1689	-0.0172107
6.2481	-24.1678	-0.0172154
6.2481	-24.1666	-0.0172202
6.2481	-24.1654	-0.017225
6.2481	-24.1642	-0.0172297
6.2481	-24.163	-0.0172345
6.2481	-24.1618	-0.0172393
6.2481	-24.1606	-0.017244
6.2481	-24.1594	-0.0172488
6.2481	-24.1582	-0.0172536
6.2481	-24.157	-0.0172583
6.2481	-24.1558	-0.0172631
6.2481	-24.1546	-0.0172679
6.2481	-24.1534	-0.0172727
6.24811	-24.1522	-0.0172775
6.24811	-24.151	-0.0172823
6.24811	-24.1498	-0.0172871
6.24811	-24.1487	-0.0172919
6.24811	-24.1475	-0.0172966
6.24811	-24.1463	-0.0173014
6.24811	-24.1451	-0.0173062
6.24811	-24.1439	-0.017311
6.24811	-24.1427	-0.0173158
6.24811	-24.1415	-0.0173207
6.24811	-24.1403	-0.0173255
6.24811	-24.1391	-0.0173303
6.24811	-24.1379	-0.0173351
6.24811	-24.1367	-0.0173399
6.24811	-24.1355	-0.0173447
6.24811	-24.1343	-0.0173495
6.24811	-24.1331	-0.0173544
6.24811	-24.1319	-0.0173592
6.24811	-24.1307	-0.017364
6.24811	-24.1295	-0.0173688
6.24811	-24.1283	-0.0173737
6.24811	-24.1271	-0.0173785
6.24811	-24.1259	-0.0173833
6.24811	-24.1247	-0.0173882
6.24811	-24.1235	-0.017393
6.24812	-24.1223	-0.0173978
6.24812	-24.1211	-0.0174027
6.24812	-24.1199	-0.0174075
6.24812	-24.1187	-0.0174124
6.24812	-24.1175	-0.0174172
6.24812	-24.1163	-0.0174221
6.24812	-24.1151	-0.0174269
6.24812	-24.1139	-0.0174318
6.24812	-24.1127	-0.0174367
6.24812	-24.1115	-0.0174415
6.24812	-24.1103	-0.0174464
6.24812	-24.1091	-0.0174512
6.24812	-24.1079	-0.0174561
6.24812	-24.1067	-0.017461
6.24812	-24.1055	-0.0174659
6.24812	-24.1043	-0.0174707
6.24812	-24.1031	-0.0174756
6.24812	-24.1019	-0.0174805
6.24812	-24.1007	-0.0174854
6.24812	-24.0995	-0.0174902
6.24812	-24.0983	-0.0174951
6.24812	-24.097	-0.0175
6.24812	-24.0958	-0.0175049
6.24812	-24.0946	-0.0175098
6.24812	-24.0934	-0.0175147
6.24813	-24.0922	-0.0175196
6.24813	-24.091	-0.0175245
6.24813	-24.0898	-0.0175294
6.24813	-24.0886	-0.0175343
6.24813	-24.0874	-0.0175392
6.24813	-24.0862	-0.0175441
6.24813	-24.085	-0.017549
6.24813	-24.0838	-0.0175539
6.24813	-24.0826	-0.0175588
6.24813	-24.0814	-0.0175638
6.24813	-24.0802	-0.0175687
6.24813	-24.079	-0.0175736
6.24813	-24.0777	-0.0175785
6.24813	-24.0765	-0.0175835
6.24813	-24.0753	-0.0175884
6.24813	-24.0741	-0.0175933
6.24813	-24.0729	-0.0175982
6.24813	-24.0717	-0.0176032
6.24813	-24.0705	-0.0176081
6.24813	-24.0693	-0.0176131
6.24813	-24.0681	-0.017618
6.24813	-24.0669	-0.0176229
6.24813	-24.0657	-0.0176279
6.24813	-24.0644	-0.0176328
6.24813	-24.0632	-0.0176378
6.24814	-24.062	-0.0176427
6.24814	-24.0608	-0.0176477
6.24814	-24.0596	-0.0176527
6.24814	-24.0584	-0.0176576
6.24814	-24.0572	-0.0176626
6.24814	-24.056	-0.0176675
6.24814	-24.0547	-0.0176725
6.24814	-24.0535	-0.0176775
6.24814	-24.0523	-0.0176824
6.24814	-24.0511	-0.0176874
6.24814	-24.0499	-0.0176924
6.24814	-24.0487	-0.0176974
6.24814	-24.0475	-0.0177024
6.24814	-24.0463	-0.0177073
6.24814	-24.045	-0.0177123
6.24814	-24.0438	-0.0177173
6.24814	-24.0426	-0.0177223
6.24814	-24.0414	-0.0177273
6.24814	-24.0402	-0.0177323
6.24814	-24.039	-0.0177373
6.24814	-24.0378	-0.0177423
6.24814	-24.0365	-0.0177473
6.24814	-24.0353	-0.0177523
6.24814	-24.0341	-0.0177573
6.24814	-24.0329	-0.0177623
6.24815	-24.0317	-0.0177673
6.24815	-24.0305	-0.0177723
6.24815	-24.0292	-0.0177773
6.24815	-24.028	-0.0177824
6.24815	-24.0268	-0.0177874
6.24815	-24.0256	-0.0177924
6.24815	-24.0244	-0.0177974
6.24815	-24.0232	-0.0178025
6.24815	-24.0219	-0.0178075
6.24815	-24.0207	-0.0178125
6.24815	-24.0195	-0.0178176
6.24815	-24.0183	-0.0178226
6.24815	-24.0171	-0.0178276
6.24815	-24.0158	-0.0178327
6.24815	-24.0146	-0.0178377
6.24815	-24.0134	-0.0178428
6.24815	-24.0122	-0.0178478
6.24815	-24.011	-0.0178529
6.24815	-24.0097	-0.0178579
6.24815	-24.0085	-0.017863
6.24815	-24.0073	-0.017868
6.24815	-24.0061	-0.0178731
6.24815	-24.0049	-0.0178781
6.24815	-24.0036	-0.0178832
6.24815	-24.0024	-0.0178883
6.24816	-24.0012	-0.0178933
6.24816	-24	-0.0178984
6.24816	-23.9988	-0.0179035
6.24816	-23.9975	-0.0179086
6.24816	-23.9963	-0.0179136
6.24816	-23.9951	-0.0179187
6.24816	-23.9939	-0.0179238
6.24816	-23.9926	-0.0179289
6.24816	-23.9914	-0.017934
6.24816	-23.9902	-0.0179391
6.24816	-23.989	-0.0179442
6.24816	-23.9877	-0.0179493
6.24816	-23.9865	-0.0179544
6.24816	-23.9853	-0.0179595
6.24816	-23.9841	-0.0179646
6.24816	-23.9828	-0.0179697
6.24816	-23.9816	-0.0179748
6.24816	-23.9804	-0.0179799
6.24816	-23.9792	-0.017985
6.24816	-23.9779	-0.0179901
6.24816	-23.9767	-0.0179952
6.24816	-23.9755	-0.0180003
6.24816	-23.9743	-0.0180055
6.24816	-23.973	-0.0180106
6.24816	-23.9718	-0.0180157
6.24817	-23.9706	-0.0180208
6.24817	-23.9693	-0.018026
6.24817	-23.9681	-0.0180311
6.24817	-23.9669	-0.0180362
6.24817	-23.9657	-0.0180414
6.24817	-23.9644	-0.0180465
6.24817	-23.9632	-0.0180517
6.24817	-23.962	-0.0180568
6.24817	-23.9607	-0.0180619
6.24817	-23.9595	-0.0180671
6.24817	-23.9583	-0.0180723
6.24817	-23.9571	-0.0180774
6.24817	-23.9558	-0.0180826
6.24817	-23.9546	-0.0180877
6.24817	-23.9534	-0.0180929
6.24817	-23.9521	-0.018098
6.24817	-23.9509	-0.0181032
6.24817	-23.9497	-0.0181084
6.24817	-23.9484	-0.0181136
6.24817	-23.9472	-0.0181187
6.24817	-23.946	-0.0181239
6.24817	-23.9447	-0.0181291
6.24817	-23.9435	-0.0181343
6.24817	-23.9423	-0.0181395
6.24817	-23.941	-0.0181446
6.24818	-23.9398	-0.0181498
6.24818	-23.9386	-0.018155
6.24818	-23.9373	-0.0181602
6.24818	-23.9361	-0.0181654
6.24818	-23.9349	-0.0181706
6.24818	-23.9336	-0.0181758
6.24818	-23.9324	-0.018181
6.24818	-23.9312	-0.0181862
6.24818	-23.9299	-0.0181914
6.24818	-23.9287	-0.0181966
6.24818	-23.9275	-0.0182018
6.24818	-23.9262	-0.0182071
6.24818	-23.925	-0.0182123
6.24818	-23.9238	-0.0182175
6.24818	-23.9225	-0.0182227
6.24818	-23.9213	-0.0182279
6.24818	-23.9201	-0.0182332
6.24818	-23.9188	-0.0182384
6.24818	-23.9176	-0.0182436
6.24818	-23.9163	-0.0182489
6.24818	-23.9151	-0.0182541
6.24818	-23.9139	-0.0182594
6.24818	-23.9126	-0.0182646
6.24818	-23.9114	-0.0182698
6.24818	-23.9102	-0.0182751
6.24819	-23.9089	-0.0182803
6.24819	-23.9077	-0.0182856
6.24819	-23.9064	-0.0182908
6.24819	-23.9052	-0.0182961
6.24819	-23.904	-0.0183014
6.24819	-23.9027	-0.0183066
6.24819	-23.9015	-0.0183119
6.24819	-23.9002	-0.0183172
6.24819	-23.899	-0.0183224
6.24819	-23.8978	-0.0183277
6.24819	-23.8965	-0.018333
6.24819	-23.8953	-0.0183382
6.24819	-23.894	-0.0183435
6.24819	-23.8928	-0.0183488
6.24819	-23.8915	-0.0183541
6.24819	-23.8903	-0.0183594
6.24819	-23.8891	-0.0183647
6.24819	-23.8878	-0.01837
6.24819	-23.8866	-0.0183753
6.24819	-23.8853	-0.0183806
6.24819	-23.8841	-0.0183859
6.24819	-23.8828	-0.0183912
6.24819	-23.8816	-0.0183965
6.24819	-23.8804	-0.0184018
6.24819	-23.8791	-0.0184071
6.2482	-23.8779	-0.0184124
6.2482	-23.8766	-0.0184177
6.2482	-23.8754	-0.018423
6.2482	-23.8741	-0.0184283
6.2482	-23.8729	-0.0184337
6.2482	-23.8716	-0.018439
6.2482	-23.8704	-0.0184443
6.2482	-23.8692	-0.0184496
6.2482	-23.8679	-0.018455
6.2482	-23.8667	-0.0184603
6.2482	-23.8654	-0.0184657
6.2482	-23.8642	-0.018471
6.2482	-23.8629	-0.0184763
6.2482	-23.8617	-0.0184817
6.2482	-23.8604	-0.018487
6.2482	-23.8592	-0.0184924
6.2482	-23.8579	-0.0184977
6.2482	-23.8567	-0.0185031
6.2482	-23.8554	-0.0185084
6.2482	-23.8542	-0.0185138
6.2482	-23.8529	-0.0185192
6.2482	-23.8517	-0.0185245
6.2482	-23.8504	-0.0185299
6.2482	-23.8492	-0.0185353
6.2482	-23.8479	-0.0185406
6.24821	-23.8467	-0.018546
6.24821	-23.8454	-0.0185514
6.24821	-23.8442	-0.0185568
6.24821	-23.8429	-0.0185622
6.24821	-23.8417	-0.0185675
6.24821	-23.8404	-0.0185729
6.24821	-23.8392	-0.0185783
6.24821	-23.8379	-0.0185837
6.24821	-23.8367	-0.0185891
6.24821	-23.8354	-0.0185945
6.24821	-23.8342	-0.0185999
6.24821	-23.8329	-0.0186053
6.24821	-23.8317	-0.0186107
6.24821	-23.8304	-0.0186161
6.24821	-23.8292	-0.0186215
6.24821	-23.8279	-0.0186269
6.24821	-23.8267	-0.0186324
6.24821	-23.8254	-0.0186378
6.24821	-23.8241	-0.0186432
6.24821	-23.8229	-0.0186486
6.24821	-23.8216	-0.0186541
6.24821	-23.8204	-0.0186595
6.24821	-23.8191	-0.0186649
6.24821	-23.8179	-0.0186704
6.24821	-23.8166	-0.0186758
6.24822	-23.8154	-0.0186812
6.24822	-23.8141	-0.0186867
6.24822	-23.8128	-0.0186921
6.24822	-23.8116	-0.0186976
6.24822	-23.8103	-0.018703
6.24822	-23.8091	-0.0187085
6.24822	-23.8078	-0.0187139
6.24822	-23.8066	-0.0187194
6.24822	-23.8053	-0.0187248
6.24822	-23.804	-0.0187303
6.24822	-23.8028	-0.0187358
6.24822	-23.8015	-0.0187412
6.24822	-23.8003	-0.0187467
6.24822	-23.799	-0.0187522
6.24822	-23.7977	-0.0187577
6.24822	-23.7965	-0.0187631
6.24822	-23.7952	-0.0187686
6.24822	-23.794	-0.0187741
6.24822	-23.7927	-0.0187796
6.24822	-23.7914	-0.0187851
6.24822	-23.7902	-0.0187906
6.24822	-23.7889	-0.0187961
6.24822	-23.7877	-0.0188016
6.24822	-23.7864	-0.0188071
6.24822	-23.7851	-0.0188126
6.24823	-23.7839	-0.0188181
6.24823	-23.7826	-0.0188236
6.24823	-23.7814	-0.0188291
6.24823	-23.7801	-0.0188346
6.24823	-23.7788	-0.0188401
6.24823	-23.7776	-0.0188456
6.24823	-23.7763	-0.0188511
6.24823	-23.775	-0.0188567
6.24823	-23.7738	-0.0188622
6.24823	-23.7725	-0.0188677
6.24823	-23.7713	-0.0188733
6.24823	-23.77	-0.0188788
6.24823	-23.7687	-0.0188843
6.24823	-23.7675	-0.0188899
6.24823	-23.7662	-0.0188954
6.24823	-23.7649	-0.018901
6.24823	-23.7637	-0.0189065
6.24823	-23.7624	-0.0189121
6.24823	-23.7611	-0.0189176
6.24823	-23.7599	-0.0189232
6.24823	-23.7586	-0.0189287
6.24823	-23.7573	-0.0189343
6.24823	-23.7561	-0.0189398
6.24823	-23.7548	-0.0189454
6.24823	-23.7535	-0.018951
6.24824	-23.7523	-0.0189565
6.24824	-23.751	-0.0189621
6.24824	-23.7497	-0.0189677
6.24824	-23.7485	-0.0189733
6.24824	-23.7472	-0.0189789
6.24824	-23.7459	-0.0189844
6.24824	-23.7446	-0.01899
6.24824	-23.7434	-0.0189956
6.24824	-23.7421	-0.0190012
6.24824	-23.7408	-0.0190068
6.24824	-23.7396	-0.0190124
6.24824	-23.7383	-0.019018
6.24824	-23.737	-0.0190236
6.24824	-23.7358	-0.0190292
6.24824	-23.7345	-0.0190348
6.24824	-23.7332	-0.0190404
6.24824	-23.7319	-0.0190461
6.24824	-23.7307	-0.0190517
6.24824	-23.7294	-0.0190573
6.24824	-23.7281	-0.0190629
6.24824	-23.7269	-0.0190685
6.24824	-23.7256	-0.0190742
6.24824	-23.7243	-0.0190798
6.24824	-23.723	-0.0190854
6.24824	-23.7218	-0.0190911
6.24825	-23.7205	-0.0190967
6.24825	-23.7192	-0.0191023
6.24825	-23.7179	-0.019108
6.24825	-23.7167	-0.0191136
6.24825	-23.7154	-0.0191193
6.24825	-23.7141	-0.0191249
6.24825	-23.7128	-0.0191306
6.24825	-23.7116	-0.0191362
6.24825	-23.7103	-0.0191419
6.24825	-23.709	-0.0191476
6.24825	-23.7077	-0.0191532
6.24825	-23.7065	-0.0191589
6.24825	-23.7052	-0.0191646
6.24825	-23.7039	-0.0191703
6.24825	-23.7026	-0.0191759
6.24825	-23.7014	-0.0191816
6.24825	-23.7001	-0.0191873
6.24825	-23.6988	-0.019193
6.24825	-23.6975	-0.0191987
6.24825	-23.6962	-0.0192044
6.24825	-23.695	-0.01921
6.24825	-23.6937	-0.0192157
6.24825	-23.6924	-0.0192214
6.24825	-23.6911	-0.0192271
6.24825	-23.6898	-0.0192329
6.24826	-23.6886	-0.0192386
6.24826	-23.6873	-0.0192443
6.24826	-23.686	-0.01925
6.24826	-23.6847	-0.0192557
6.24826	-23.6834	-0.0192614
6.24826	-23.6822	-0.0192671
6.24826	-23.6809	-0.0192729
6.24826	-23.6796	-0.0192786
6.24826	-23.6783	-0.0192843
6.24826	-23.677	-0.01929
6.24826	-23.6758	-0.0192958
6.24826	-23.6745	-0.0193015
6.24826	-23.6732	-0.0193073
6.24826	-23.6719	-0.019313
6.24826	-23.6706	-0.0193188
6.24826	-23.6693	-0.0193245
6.24826	-23.6681	-0.0193303
6.24826	-23.6668	-0.019336
6.24826	-23.6655	-0.0193418
6.24826	-23.6642	-0.0193475
6.24826	-23.6629	-0.0193533
6.24826	-23.6616	-0.0193591
6.24826	-23.6604	-0.0193648
6.24826	-23.6591	-0.0193706
6.24826	-23.6578	-0.0193764
6.24827	-23.6565	-0.0193821
6.24827	-23.6552	-0.0193879
6.24827	-23.6539	-0.0193937
6.24827	-23.6526	-0.0193995
6.24827	-23.6514	-0.0194053
6.24827	-23.6501	-0.0194111
6.24827	-23.6488	-0.0194169
6.24827	-23.6475	-0.0194227
6.24827	-23.6462	-0.0194285
6.24827	-23.6449	-0.0194343
6.24827	-23.6436	-0.0194401
6.24827	-23.6423	-0.0194459
6.24827	-23.6411	-0.0194517
6.24827	-23.6398	-0.0194575
6.24827	-23.6385	-0.0194633
6.24827	-23.6372	-0.0194691
6.24827	-23.6359	-0.019475
6.24827	-23.6346	-0.0194808
6.24827	-23.6333	-0.0194866
6.24827	-23.632	-0.0194924
6.24827	-23.6307	-0.0194983
6.24827	-23.6294	-0.0195041
6.24827	-23.6282	-0.01951
6.24827	-23.6269	-0.0195158
6.24827	-23.6256	-0.0195216
6.24828	-23.6243	-0.0195275
6.24828	-23.623	-0.0195333
6.24828	-23.6217	-0.0195392
6.24828	-23.6204	-0.019545
6.24828	-23.6191	-0.0195509
6.24828	-23.6178	-0.0195568
6.24828	-23.6165	-0.0195626
6.24828	-23.6152	-0.0195685
6.24828	-23.6139	-0.0195744
6.24828	-23.6126	-0.0195802
6.24828	-23.6113	-0.0195861
6.24828	-23.6101	-0.019592
6.24828	-23.6088	-0.0195979
6.24828	-23.6075	-0.0196038
6.24828	-23.6062	-0.0196097
6.24828	-23.6049	-0.0196155
6.24828	-23.6036	-0.0196214
6.24828	-23.6023	-0.0196273
6.24828	-23.601	-0.0196332
6.24828	-23.5997	-0.0196391
6.24828	-23.5984	-0.019645
6.24828	-23.5971	-0.019651
6.24828	-23.5958	-0.0196569
6.24828	-23.5945	-0.0196628
6.24828	-23.5932	-0.0196687
6.24829	-23.5919	-0.0196746
6.24829	-23.5906	-0.0196805
6.24829	-23.5893	-0.0196865
6.24829	-23.588	-0.0196924
6.24829	-23.5867	-0.0196983
6.24829	-23.5854	-0.0197043
6.24829	-23.5841	-0.0197102
