Frequency (GHz)	DB(|S(1,1)|) : demo 1	DB(|S(2,1)|) : demo 1
6.248	-20.8424	-0.0371165
6.248	-20.8407	-0.0371317
6.248	-20.8389	-0.0371469
6.248	-20.8371	-0.0371621
6.248	-20.8354	-0.0371774
6.248	-20.8336	-0.0371926
6.248	-20.8318	-0.0372079
6.248	-20.8301	-0.0372231
6.248	-20.8283	-0.0372384
6.248	-20.8265	-0.0372537
6.248	-20.8248	-0.0372689
6.248	-20.823	-0.0372842
6.248	-20.8212	-0.0372995
6.24801	-20.8195	-0.0373149
6.24801	-20.8177	-0.0373302
6.24801	-20.8159	-0.0373455
6.24801	-20.8141	-0.0373609
6.24801	-20.8124	-0.0373762
6.24801	-20.8106	-0.0373916
6.24801	-20.8088	-0.037407
6.24801	-20.8071	-0.0374223
6.24801	-20.8053	-0.0374377
6.24801	-20.8035	-0.0374531
6.24801	-20.8017	-0.0374686
6.24801	-20.8	-0.037484
6.24801	-20.7982	-0.0374994
6.24801	-20.7964	-0.0375149
6.24801	-20.7946	-0.0375303
6.24801	-20.7929	-0.0375458
6.24801	-20.7911	-0.0375613
6.24801	-20.7893	-0.0375768
6.24801	-20.7875	-0.0375923
6.24801	-20.7858	-0.0376078
6.24801	-20.784	-0.0376233
6.24801	-20.7822	-0.0376388
6.24801	-20.7804	-0.0376543
6.24801	-20.7786	-0.0376699
6.24801	-20.7769	-0.0376855
6.24802	-20.7751	-0.037701
6.24802	-20.7733	-0.0377166
6.24802	-20.7715	-0.0377322
6.24802	-20.7697	-0.0377478
6.24802	-20.768	-0.0377634
6.24802	-20.7662	-0.037779
6.24802	-20.7644	-0.0377947
6.24802	-20.7626	-0.0378103
6.24802	-20.7608	-0.0378259
6.24802	-20.7591	-0.0378416
6.24802	-20.7573	-0.0378573
6.24802	-20.7555	-0.037873
6.24802	-20.7537	-0.0378887
6.24802	-20.7519	-0.0379044
6.24802	-20.7501	-0.0379201
6.24802	-20.7483	-0.0379358
6.24802	-20.7466	-0.0379515
6.24802	-20.7448	-0.0379673
6.24802	-20.743	-0.037983
6.24802	-20.7412	-0.0379988
6.24802	-20.7394	-0.0380146
6.24802	-20.7376	-0.0380303
6.24802	-20.7358	-0.0380461
6.24802	-20.734	-0.038062
6.24802	-20.7322	-0.0380778
6.24803	-20.7305	-0.0380936
6.24803	-20.7287	-0.0381094
6.24803	-20.7269	-0.0381253
6.24803	-20.7251	-0.0381411
6.24803	-20.7233	-0.038157
6.24803	-20.7215	-0.0381729
6.24803	-20.7197	-0.0381888
6.24803	-20.7179	-0.0382047
6.24803	-20.7161	-0.0382206
6.24803	-20.7143	-0.0382365
6.24803	-20.7125	-0.0382525
6.24803	-20.7107	-0.0382684
6.24803	-20.7089	-0.0382844
6.24803	-20.7071	-0.0383003
6.24803	-20.7053	-0.0383163
6.24803	-20.7035	-0.0383323
6.24803	-20.7017	-0.0383483
6.24803	-20.6999	-0.0383643
6.24803	-20.6981	-0.0383803
6.24803	-20.6963	-0.0383963
6.24803	-20.6945	-0.0384124
6.24803	-20.6927	-0.0384284
6.24803	-20.6909	-0.0384445
6.24803	-20.6891	-0.0384606
6.24803	-20.6873	-0.0384766
6.24804	-20.6855	-0.0384927
6.24804	-20.6837	-0.0385088
6.24804	-20.6819	-0.0385249
6.24804	-20.6801	-0.0385411
6.24804	-20.6783	-0.0385572
6.24804	-20.6765	-0.0385734
6.24804	-20.6747	-0.0385895
6.24804	-20.6729	-0.0386057
6.24804	-20.6711	-0.0386219
6.24804	-20.6693	-0.038638
6.24804	-20.6675	-0.0386542
6.24804	-20.6657	-0.0386705
6.24804	-20.6639	-0.0386867
6.24804	-20.6621	-0.0387029
6.24804	-20.6603	-0.0387192
6.24804	-20.6585	-0.0387354
6.24804	-20.6567	-0.0387517
6.24804	-20.6548	-0.0387679
6.24804	-20.653	-0.0387842
6.24804	-20.6512	-0.0388005
6.24804	-20.6494	-0.0388168
6.24804	-20.6476	-0.0388332
6.24804	-20.6458	-0.0388495
6.24804	-20.644	-0.0388658
6.24804	-20.6422	-0.0388822
6.24805	-20.6404	-0.0388986
6.24805	-20.6385	-0.0389149
6.24805	-20.6367	-0.0389313
6.24805	-20.6349	-0.0389477
6.24805	-20.6331	-0.0389641
6.24805	-20.6313	-0.0389805
6.24805	-20.6295	-0.038997
6.24805	-20.6277	-0.0390134
6.24805	-20.6258	-0.0390299
6.24805	-20.624	-0.0390463
6.24805	-20.6222	-0.0390628
6.24805	-20.6204	-0.0390793
6.24805	-20.6186	-0.0390958
6.24805	-20.6167	-0.0391123
6.24805	-20.6149	-0.0391288
6.24805	-20.6131	-0.0391453
6.24805	-20.6113	-0.0391619
6.24805	-20.6095	-0.0391784
6.24805	-20.6076	-0.039195
6.24805	-20.6058	-0.0392116
6.24805	-20.604	-0.0392281
6.24805	-20.6022	-0.0392447
6.24805	-20.6004	-0.0392613
6.24805	-20.5985	-0.039278
6.24805	-20.5967	-0.0392946
6.24806	-20.5949	-0.0393112
6.24806	-20.5931	-0.0393279
6.24806	-20.5912	-0.0393445
6.24806	-20.5894	-0.0393612
6.24806	-20.5876	-0.0393779
6.24806	-20.5858	-0.0393946
6.24806	-20.5839	-0.0394113
6.24806	-20.5821	-0.039428
6.24806	-20.5803	-0.0394448
6.24806	-20.5784	-0.0394615
6.24806	-20.5766	-0.0394783
6.24806	-20.5748	-0.039495
6.24806	-20.573	-0.0395118
6.24806	-20.5711	-0.0395286
6.24806	-20.5693	-0.0395454
6.24806	-20.5675	-0.0395622
6.24806	-20.5656	-0.039579
6.24806	-20.5638	-0.0395959
6.24806	-20.562	-0.0396127
6.24806	-20.5601	-0.0396296
6.24806	-20.5583	-0.0396464
6.24806	-20.5565	-0.0396633
6.24806	-20.5546	-0.0396802
6.24806	-20.5528	-0.0396971
6.24806	-20.551	-0.039714
6.24807	-20.5491	-0.0397309
6.24807	-20.5473	-0.0397479
6.24807	-20.5455	-0.0397648
6.24807	-20.5436	-0.0397818
6.24807	-20.5418	-0.0397987
6.24807	-20.5399	-0.0398157
6.24807	-20.5381	-0.0398327
6.24807	-20.5363	-0.0398497
6.24807	-20.5344	-0.0398667
6.24807	-20.5326	-0.0398838
6.24807	-20.5307	-0.0399008
6.24807	-20.5289	-0.0399179
6.24807	-20.5271	-0.0399349
6.24807	-20.5252	-0.039952
6.24807	-20.5234	-0.0399691
6.24807	-20.5215	-0.0399862
6.24807	-20.5197	-0.0400033
6.24807	-20.5179	-0.0400204
6.24807	-20.516	-0.0400375
6.24807	-20.5142	-0.0400547
6.24807	-20.5123	-0.0400718
6.24807	-20.5105	-0.040089
6.24807	-20.5086	-0.0401062
6.24807	-20.5068	-0.0401234
6.24807	-20.5049	-0.0401406
6.24808	-20.5031	-0.0401578
6.24808	-20.5012	-0.040175
6.24808	-20.4994	-0.0401923
6.24808	-20.4975	-0.0402095
6.24808	-20.4957	-0.0402268
6.24808	-20.4938	-0.040244
6.24808	-20.492	-0.0402613
6.24808	-20.4901	-0.0402786
6.24808	-20.4883	-0.0402959
6.24808	-20.4864	-0.0403132
6.24808	-20.4846	-0.0403306
6.24808	-20.4827	-0.0403479
6.24808	-20.4809	-0.0403653
6.24808	-20.479	-0.0403826
6.24808	-20.4772	-0.0404
6.24808	-20.4753	-0.0404174
6.24808	-20.4735	-0.0404348
6.24808	-20.4716	-0.0404522
6.24808	-20.4698	-0.0404697
6.24808	-20.4679	-0.0404871
6.24808	-20.466	-0.0405046
6.24808	-20.4642	-0.040522
6.24808	-20.4623	-0.0405395
6.24808	-20.4605	-0.040557
6.24808	-20.4586	-0.0405745
6.24809	-20.4568	-0.040592
6.24809	-20.4549	-0.0406095
6.24809	-20.453	-0.040627
6.24809	-20.4512	-0.0406446
6.24809	-20.4493	-0.0406622
6.24809	-20.4475	-0.0406797
6.24809	-20.4456	-0.0406973
6.24809	-20.4437	-0.0407149
6.24809	-20.4419	-0.0407325
6.24809	-20.44	-0.0407501
6.24809	-20.4381	-0.0407678
6.24809	-20.4363	-0.0407854
6.24809	-20.4344	-0.0408031
6.24809	-20.4325	-0.0408207
6.24809	-20.4307	-0.0408384
6.24809	-20.4288	-0.0408561
6.24809	-20.4269	-0.0408738
6.24809	-20.4251	-0.0408915
6.24809	-20.4232	-0.0409093
6.24809	-20.4213	-0.040927
6.24809	-20.4195	-0.0409448
6.24809	-20.4176	-0.0409625
6.24809	-20.4157	-0.0409803
6.24809	-20.4139	-0.0409981
6.24809	-20.412	-0.0410159
6.2481	-20.4101	-0.0410337
6.2481	-20.4083	-0.0410515
6.2481	-20.4064	-0.0410694
6.2481	-20.4045	-0.0410872
6.2481	-20.4026	-0.0411051
6.2481	-20.4008	-0.041123
6.2481	-20.3989	-0.0411409
6.2481	-20.397	-0.0411588
6.2481	-20.3951	-0.0411767
6.2481	-20.3933	-0.0411946
6.2481	-20.3914	-0.0412125
6.2481	-20.3895	-0.0412305
6.2481	-20.3876	-0.0412484
6.2481	-20.3858	-0.0412664
6.2481	-20.3839	-0.0412844
6.2481	-20.382	-0.0413024
6.2481	-20.3801	-0.0413204
6.2481	-20.3783	-0.0413384
6.2481	-20.3764	-0.0413565
6.2481	-20.3745	-0.0413745
6.2481	-20.3726	-0.0413926
6.2481	-20.3707	-0.0414107
6.2481	-20.3689	-0.0414288
6.2481	-20.367	-0.0414469
6.2481	-20.3651	-0.041465
6.24811	-20.3632	-0.0414831
6.24811	-20.3613	-0.0415012
6.24811	-20.3594	-0.0415194
6.24811	-20.3576	-0.0415376
6.24811	-20.3557	-0.0415557
6.24811	-20.3538	-0.0415739
6.24811	-20.3519	-0.0415921
6.24811	-20.35	-0.0416103
6.24811	-20.3481	-0.0416286
6.24811	-20.3462	-0.0416468
6.24811	-20.3443	-0.0416651
6.24811	-20.3425	-0.0416833
6.24811	-20.3406	-0.0417016
6.24811	-20.3387	-0.0417199
6.24811	-20.3368	-0.0417382
6.24811	-20.3349	-0.0417565
6.24811	-20.333	-0.0417748
6.24811	-20.3311	-0.0417932
6.24811	-20.3292	-0.0418115
6.24811	-20.3273	-0.0418299
6.24811	-20.3254	-0.0418483
6.24811	-20.3236	-0.0418667
6.24811	-20.3217	-0.0418851
6.24811	-20.3198	-0.0419035
6.24811	-20.3179	-0.0419219
6.24812	-20.316	-0.0419404
6.24812	-20.3141	-0.0419588
6.24812	-20.3122	-0.0419773
6.24812	-20.3103	-0.0419958
6.24812	-20.3084	-0.0420143
6.24812	-20.3065	-0.0420328
6.24812	-20.3046	-0.0420513
6.24812	-20.3027	-0.0420698
6.24812	-20.3008	-0.0420884
6.24812	-20.2989	-0.0421069
6.24812	-20.297	-0.0421255
6.24812	-20.2951	-0.0421441
6.24812	-20.2932	-0.0421627
6.24812	-20.2913	-0.0421813
6.24812	-20.2894	-0.0421999
6.24812	-20.2875	-0.0422186
6.24812	-20.2856	-0.0422372
6.24812	-20.2837	-0.0422559
6.24812	-20.2818	-0.0422746
6.24812	-20.2799	-0.0422933
6.24812	-20.278	-0.042312
6.24812	-20.2761	-0.0423307
6.24812	-20.2742	-0.0423494
6.24812	-20.2723	-0.0423682
6.24812	-20.2704	-0.0423869
6.24813	-20.2684	-0.0424057
6.24813	-20.2665	-0.0424245
6.24813	-20.2646	-0.0424433
6.24813	-20.2627	-0.0424621
6.24813	-20.2608	-0.0424809
6.24813	-20.2589	-0.0424997
6.24813	-20.257	-0.0425186
6.24813	-20.2551	-0.0425375
6.24813	-20.2532	-0.0425563
6.24813	-20.2513	-0.0425752
6.24813	-20.2493	-0.0425941
6.24813	-20.2474	-0.042613
6.24813	-20.2455	-0.042632
6.24813	-20.2436	-0.0426509
6.24813	-20.2417	-0.0426699
6.24813	-20.2398	-0.0426888
6.24813	-20.2379	-0.0427078
6.24813	-20.2359	-0.0427268
6.24813	-20.234	-0.0427458
6.24813	-20.2321	-0.0427648
6.24813	-20.2302	-0.0427839
6.24813	-20.2283	-0.0428029
6.24813	-20.2264	-0.042822
6.24813	-20.2244	-0.0428411
6.24813	-20.2225	-0.0428602
6.24814	-20.2206	-0.0428793
6.24814	-20.2187	-0.0428984
6.24814	-20.2168	-0.0429175
6.24814	-20.2148	-0.0429367
6.24814	-20.2129	-0.0429558
6.24814	-20.211	-0.042975
6.24814	-20.2091	-0.0429942
6.24814	-20.2072	-0.0430134
6.24814	-20.2052	-0.0430326
6.24814	-20.2033	-0.0430518
6.24814	-20.2014	-0.043071
6.24814	-20.1995	-0.0430903
6.24814	-20.1975	-0.0431096
6.24814	-20.1956	-0.0431288
6.24814	-20.1937	-0.0431481
6.24814	-20.1918	-0.0431674
6.24814	-20.1898	-0.0431868
6.24814	-20.1879	-0.0432061
6.24814	-20.186	-0.0432255
6.24814	-20.184	-0.0432448
6.24814	-20.1821	-0.0432642
6.24814	-20.1802	-0.0432836
6.24814	-20.1783	-0.043303
6.24814	-20.1763	-0.0433224
6.24814	-20.1744	-0.0433418
6.24815	-20.1725	-0.0433613
6.24815	-20.1705	-0.0433807
6.24815	-20.1686	-0.0434002
6.24815	-20.1667	-0.0434197
6.24815	-20.1647	-0.0434392
6.24815	-20.1628	-0.0434587
6.24815	-20.1609	-0.0434782
6.24815	-20.1589	-0.0434978
6.24815	-20.157	-0.0435173
6.24815	-20.155	-0.0435369
6.24815	-20.1531	-0.0435565
6.24815	-20.1512	-0.0435761
6.24815	-20.1492	-0.0435957
6.24815	-20.1473	-0.0436153
6.24815	-20.1454	-0.043635
6.24815	-20.1434	-0.0436546
6.24815	-20.1415	-0.0436743
6.24815	-20.1395	-0.043694
6.24815	-20.1376	-0.0437137
6.24815	-20.1356	-0.0437334
6.24815	-20.1337	-0.0437531
6.24815	-20.1318	-0.0437729
6.24815	-20.1298	-0.0437926
6.24815	-20.1279	-0.0438124
6.24815	-20.1259	-0.0438322
6.24816	-20.124	-0.043852
6.24816	-20.122	-0.0438718
6.24816	-20.1201	-0.0438916
6.24816	-20.1182	-0.0439114
6.24816	-20.1162	-0.0439313
6.24816	-20.1143	-0.0439511
6.24816	-20.1123	-0.043971
6.24816	-20.1104	-0.0439909
6.24816	-20.1084	-0.0440108
6.24816	-20.1065	-0.0440308
6.24816	-20.1045	-0.0440507
6.24816	-20.1026	-0.0440706
6.24816	-20.1006	-0.0440906
6.24816	-20.0987	-0.0441106
6.24816	-20.0967	-0.0441306
6.24816	-20.0948	-0.0441506
6.24816	-20.0928	-0.0441706
6.24816	-20.0908	-0.0441907
6.24816	-20.0889	-0.0442107
6.24816	-20.0869	-0.0442308
6.24816	-20.085	-0.0442509
6.24816	-20.083	-0.044271
6.24816	-20.0811	-0.0442911
6.24816	-20.0791	-0.0443112
6.24816	-20.0772	-0.0443313
6.24817	-20.0752	-0.0443515
6.24817	-20.0732	-0.0443717
6.24817	-20.0713	-0.0443918
6.24817	-20.0693	-0.044412
6.24817	-20.0674	-0.0444322
6.24817	-20.0654	-0.0444525
6.24817	-20.0634	-0.0444727
6.24817	-20.0615	-0.044493
6.24817	-20.0595	-0.0445132
6.24817	-20.0576	-0.0445335
6.24817	-20.0556	-0.0445538
6.24817	-20.0536	-0.0445741
6.24817	-20.0517	-0.0445945
6.24817	-20.0497	-0.0446148
6.24817	-20.0477	-0.0446352
6.24817	-20.0458	-0.0446555
6.24817	-20.0438	-0.0446759
6.24817	-20.0418	-0.0446963
6.24817	-20.0399	-0.0447168
6.24817	-20.0379	-0.0447372
6.24817	-20.0359	-0.0447576
6.24817	-20.034	-0.0447781
6.24817	-20.032	-0.0447986
6.24817	-20.03	-0.0448191
6.24817	-20.0281	-0.0448396
6.24818	-20.0261	-0.0448601
6.24818	-20.0241	-0.0448806
6.24818	-20.0221	-0.0449012
6.24818	-20.0202	-0.0449217
6.24818	-20.0182	-0.0449423
6.24818	-20.0162	-0.0449629
6.24818	-20.0143	-0.0449835
6.24818	-20.0123	-0.0450042
6.24818	-20.0103	-0.0450248
6.24818	-20.0083	-0.0450455
6.24818	-20.0064	-0.0450661
6.24818	-20.0044	-0.0450868
6.24818	-20.0024	-0.0451075
6.24818	-20.0004	-0.0451282
6.24818	-19.9984	-0.045149
6.24818	-19.9965	-0.0451697
6.24818	-19.9945	-0.0451905
6.24818	-19.9925	-0.0452113
6.24818	-19.9905	-0.045232
6.24818	-19.9885	-0.0452529
6.24818	-19.9866	-0.0452737
6.24818	-19.9846	-0.0452945
6.24818	-19.9826	-0.0453154
6.24818	-19.9806	-0.0453362
6.24818	-19.9786	-0.0453571
6.24819	-19.9767	-0.045378
6.24819	-19.9747	-0.0453989
6.24819	-19.9727	-0.0454199
6.24819	-19.9707	-0.0454408
6.24819	-19.9687	-0.0454618
6.24819	-19.9667	-0.0454827
6.24819	-19.9647	-0.0455037
6.24819	-19.9627	-0.0455247
6.24819	-19.9608	-0.0455457
6.24819	-19.9588	-0.0455668
6.24819	-19.9568	-0.0455878
6.24819	-19.9548	-0.0456089
6.24819	-19.9528	-0.04563
6.24819	-19.9508	-0.0456511
6.24819	-19.9488	-0.0456722
6.24819	-19.9468	-0.0456933
6.24819	-19.9448	-0.0457145
6.24819	-19.9428	-0.0457356
6.24819	-19.9409	-0.0457568
6.24819	-19.9389	-0.045778
6.24819	-19.9369	-0.0457992
6.24819	-19.9349	-0.0458204
6.24819	-19.9329	-0.0458417
6.24819	-19.9309	-0.0458629
6.24819	-19.9289	-0.0458842
6.2482	-19.9269	-0.0459055
6.2482	-19.9249	-0.0459268
6.2482	-19.9229	-0.0459481
6.2482	-19.9209	-0.0459694
6.2482	-19.9189	-0.0459908
6.2482	-19.9169	-0.0460121
6.2482	-19.9149	-0.0460335
6.2482	-19.9129	-0.0460549
6.2482	-19.9109	-0.0460763
6.2482	-19.9089	-0.0460977
6.2482	-19.9069	-0.0461192
6.2482	-19.9049	-0.0461406
6.2482	-19.9029	-0.0461621
6.2482	-19.9009	-0.0461836
6.2482	-19.8989	-0.0462051
6.2482	-19.8969	-0.0462266
6.2482	-19.8949	-0.0462481
6.2482	-19.8928	-0.0462697
6.2482	-19.8908	-0.0462913
6.2482	-19.8888	-0.0463129
6.2482	-19.8868	-0.0463344
6.2482	-19.8848	-0.0463561
6.2482	-19.8828	-0.0463777
6.2482	-19.8808	-0.0463993
6.2482	-19.8788	-0.046421
6.24821	-19.8768	-0.0464427
6.24821	-19.8748	-0.0464644
6.24821	-19.8728	-0.0464861
6.24821	-19.8707	-0.0465078
6.24821	-19.8687	-0.0465296
6.24821	-19.8667	-0.0465513
6.24821	-19.8647	-0.0465731
6.24821	-19.8627	-0.0465949
6.24821	-19.8607	-0.0466167
6.24821	-19.8587	-0.0466385
6.24821	-19.8566	-0.0466604
6.24821	-19.8546	-0.0466822
6.24821	-19.8526	-0.0467041
6.24821	-19.8506	-0.046726
6.24821	-19.8486	-0.0467479
6.24821	-19.8465	-0.0467698
6.24821	-19.8445	-0.0467918
6.24821	-19.8425	-0.0468137
6.24821	-19.8405	-0.0468357
6.24821	-19.8385	-0.0468577
6.24821	-19.8364	-0.0468797
6.24821	-19.8344	-0.0469017
6.24821	-19.8324	-0.0469237
6.24821	-19.8304	-0.0469458
6.24821	-19.8284	-0.0469678
6.24822	-19.8263	-0.0469899
6.24822	-19.8243	-0.047012
6.24822	-19.8223	-0.0470342
6.24822	-19.8203	-0.0470563
6.24822	-19.8182	-0.0470784
6.24822	-19.8162	-0.0471006
6.24822	-19.8142	-0.0471228
6.24822	-19.8121	-0.047145
6.24822	-19.8101	-0.0471672
6.24822	-19.8081	-0.0471894
6.24822	-19.8061	-0.0472117
6.24822	-19.804	-0.047234
6.24822	-19.802	-0.0472562
6.24822	-19.8	-0.0472785
6.24822	-19.7979	-0.0473009
6.24822	-19.7959	-0.0473232
6.24822	-19.7939	-0.0473455
6.24822	-19.7918	-0.0473679
6.24822	-19.7898	-0.0473903
6.24822	-19.7878	-0.0474127
6.24822	-19.7857	-0.0474351
6.24822	-19.7837	-0.0474575
6.24822	-19.7817	-0.04748
6.24822	-19.7796	-0.0475025
6.24822	-19.7776	-0.0475249
6.24823	-19.7755	-0.0475475
6.24823	-19.7735	-0.04757
6.24823	-19.7715	-0.0475925
6.24823	-19.7694	-0.0476151
6.24823	-19.7674	-0.0476376
6.24823	-19.7653	-0.0476602
6.24823	-19.7633	-0.0476828
6.24823	-19.7613	-0.0477054
6.24823	-19.7592	-0.0477281
6.24823	-19.7572	-0.0477507
6.24823	-19.7551	-0.0477734
6.24823	-19.7531	-0.0477961
6.24823	-19.751	-0.0478188
6.24823	-19.749	-0.0478415
6.24823	-19.7469	-0.0478642
6.24823	-19.7449	-0.047887
6.24823	-19.7428	-0.0479098
6.24823	-19.7408	-0.0479326
6.24823	-19.7388	-0.0479554
6.24823	-19.7367	-0.0479782
6.24823	-19.7347	-0.048001
6.24823	-19.7326	-0.0480239
6.24823	-19.7306	-0.0480468
6.24823	-19.7285	-0.0480697
6.24823	-19.7265	-0.0480926
6.24824	-19.7244	-0.0481155
6.24824	-19.7223	-0.0481384
6.24824	-19.7203	-0.0481614
6.24824	-19.7182	-0.0481844
6.24824	-19.7162	-0.0482074
6.24824	-19.7141	-0.0482304
6.24824	-19.7121	-0.0482534
6.24824	-19.71	-0.0482765
6.24824	-19.708	-0.0482995
6.24824	-19.7059	-0.0483226
6.24824	-19.7038	-0.0483457
6.24824	-19.7018	-0.0483689
6.24824	-19.6997	-0.048392
6.24824	-19.6977	-0.0484151
6.24824	-19.6956	-0.0484383
6.24824	-19.6935	-0.0484615
6.24824	-19.6915	-0.0484847
6.24824	-19.6894	-0.0485079
6.24824	-19.6874	-0.0485312
6.24824	-19.6853	-0.0485544
6.24824	-19.6832	-0.0485777
6.24824	-19.6812	-0.048601
6.24824	-19.6791	-0.0486243
6.24824	-19.677	-0.0486476
6.24824	-19.675	-0.048671
6.24825	-19.6729	-0.0486944
6.24825	-19.6708	-0.0487177
6.24825	-19.6688	-0.0487411
6.24825	-19.6667	-0.0487646
6.24825	-19.6646	-0.048788
6.24825	-19.6626	-0.0488115
6.24825	-19.6605	-0.0488349
6.24825	-19.6584	-0.0488584
6.24825	-19.6564	-0.0488819
6.24825	-19.6543	-0.0489054
6.24825	-19.6522	-0.048929
6.24825	-19.6501	-0.0489526
6.24825	-19.6481	-0.0489761
6.24825	-19.646	-0.0489997
6.24825	-19.6439	-0.0490233
6.24825	-19.6418	-0.049047
6.24825	-19.6398	-0.0490706
6.24825	-19.6377	-0.0490943
6.24825	-19.6356	-0.049118
6.24825	-19.6335	-0.0491417
6.24825	-19.6315	-0.0491654
6.24825	-19.6294	-0.0491892
6.24825	-19.6273	-0.0492129
6.24825	-19.6252	-0.0492367
6.24825	-19.6231	-0.0492605
6.24826	-19.6211	-0.0492843
6.24826	-19.619	-0.0493081
6.24826	-19.6169	-0.049332
6.24826	-19.6148	-0.0493559
6.24826	-19.6127	-0.0493797
6.24826	-19.6106	-0.0494036
6.24826	-19.6086	-0.0494276
6.24826	-19.6065	-0.0494515
6.24826	-19.6044	-0.0494755
6.24826	-19.6023	-0.0494995
6.24826	-19.6002	-0.0495234
6.24826	-19.5981	-0.0495475
6.24826	-19.596	-0.0495715
6.24826	-19.594	-0.0495955
6.24826	-19.5919	-0.0496196
6.24826	-19.5898	-0.0496437
6.24826	-19.5877	-0.0496678
6.24826	-19.5856	-0.0496919
6.24826	-19.5835	-0.0497161
6.24826	-19.5814	-0.0497402
6.24826	-19.5793	-0.0497644
6.24826	-19.5772	-0.0497886
6.24826	-19.5751	-0.0498129
6.24826	-19.573	-0.0498371
6.24826	-19.5709	-0.0498613
6.24827	-19.5688	-0.0498856
6.24827	-19.5667	-0.0499099
6.24827	-19.5647	-0.0499342
6.24827	-19.5626	-0.0499586
6.24827	-19.5605	-0.0499829
6.24827	-19.5584	-0.0500073
6.24827	-19.5563	-0.0500317
6.24827	-19.5542	-0.0500561
6.24827	-19.5521	-0.0500805
6.24827	-19.55	-0.0501049
6.24827	-19.5479	-0.0501294
6.24827	-19.5458	-0.0501539
6.24827	-19.5437	-0.0501784
6.24827	-19.5415	-0.0502029
6.24827	-19.5394	-0.0502274
6.24827	-19.5373	-0.050252
6.24827	-19.5352	-0.0502766
6.24827	-19.5331	-0.0503012
6.24827	-19.531	-0.0503258
6.24827	-19.5289	-0.0503504
6.24827	-19.5268	-0.0503751
6.24827	-19.5247	-0.0503997
6.24827	-19.5226	-0.0504244
6.24827	-19.5205	-0.0504491
6.24827	-19.5184	-0.0504739
6.24828	-19.5163	-0.0504986
6.24828	-19.5142	-0.0505234
6.24828	-19.512	-0.0505482
6.24828	-19.5099	-0.050573
6.24828	-19.5078	-0.0505978
6.24828	-19.5057	-0.0506226
6.24828	-19.5036	-0.0506475
6.24828	-19.5015	-0.0506724
6.24828	-19.4994	-0.0506973
6.24828	-19.4972	-0.0507222
6.24828	-19.4951	-0.0507471
6.24828	-19.493	-0.0507721
6.24828	-19.4909	-0.0507971
6.24828	-19.4888	-0.0508221
6.24828	-19.4867	-0.0508471
6.24828	-19.4845	-0.0508721
6.24828	-19.4824	-0.0508972
6.24828	-19.4803	-0.0509223
6.24828	-19.4782	-0.0509473
6.24828	-19.4761	-0.0509725
6.24828	-19.4739	-0.0509976
6.24828	-19.4718	-0.0510228
6.24828	-19.4697	-0.0510479
6.24828	-19.4676	-0.0510731
6.24828	-19.4654	-0.0510983
6.24829	-19.4633	-0.0511236
6.24829	-19.4612	-0.0511488
6.24829	-19.4591	-0.0511741
6.24829	-19.4569	-0.0511994
6.24829	-19.4548	-0.0512247
6.24829	-19.4527	-0.05125
